time	V(vd)	V(n001)	I(R1)
0.000000000000000e+000	0.000000e+000	0.000000e+000	0.000000e+000
1.872457149649470e-011	2.239047e-005	5.883630e-002	-5.710351e-006
3.744914299298940e-011	7.540711e-005	1.176467e-001	-1.141379e-005
5.617371448948410e-011	1.590499e-004	1.764311e-001	-1.711030e-005
7.489828598597880e-011	2.733189e-004	2.351896e-001	-2.279991e-005
9.362285748247350e-011	4.182141e-004	2.939222e-001	-2.848260e-005
1.123474289789682e-010	5.937354e-004	3.526288e-001	-3.415837e-005
1.310720004754629e-010	7.998829e-004	4.113095e-001	-3.982722e-005
2.310720004754629e-010	2.252872e-003	7.233864e-001	-6.994367e-005
3.310720004754629e-010	4.387131e-003	1.032609e+000	-9.972840e-005
4.310720004754629e-010	7.255754e-003	1.337755e+000	-1.290466e-004
5.310720004754629e-010	1.084301e-002	1.637623e+000	-1.577829e-004
6.310720004754629e-010	1.512980e-002	1.931027e+000	-1.858245e-004
7.310720004754629e-010	2.009369e-002	2.216810e+000	-2.130611e-004
8.310720004754628e-010	2.570916e-002	2.493845e+000	-2.393860e-004
9.310720004754628e-010	3.194766e-002	2.761038e+000	-2.646957e-004
1.031072000475463e-009	3.877785e-002	3.017334e+000	-2.888911e-004
1.131072000475463e-009	4.616574e-002	3.261722e+000	-3.118775e-004
1.231072000475463e-009	5.407495e-002	3.493237e+000	-3.335646e-004
1.331072000475463e-009	6.246688e-002	3.710967e+000	-3.538678e-004
1.431072000475463e-009	7.130092e-002	3.914051e+000	-3.727076e-004
1.631072000475463e-009	9.012418e-002	4.273137e+000	-4.057084e-004
1.831072000475463e-009	1.101879e-001	4.564833e+000	-4.320526e-004
2.031072000475463e-009	1.311165e-001	4.784539e+000	-4.513303e-004
2.231072000475464e-009	1.525213e-001	4.928791e+000	-4.632433e-004
2.431072000475464e-009	1.740058e-001	4.995312e+000	-4.676094e-004
2.631072000475464e-009	1.951711e-001	4.983054e+000	-4.643656e-004
2.831072000475464e-009	2.156219e-001	4.892210e+000	-4.535691e-004
3.031072000475464e-009	2.349774e-001	4.724214e+000	-4.353956e-004
3.231072000475464e-009	2.528867e-001	4.481713e+000	-4.101364e-004
3.431072000475464e-009	2.690501e-001	4.168533e+000	-3.781913e-004
3.631072000475464e-009	2.832401e-001	3.789613e+000	-3.400616e-004
3.831072000475465e-009	2.953147e-001	3.350929e+000	-2.963406e-004
4.031072000475465e-009	3.052149e-001	2.859399e+000	-2.477051e-004
4.231072000475465e-009	3.129474e-001	2.322774e+000	-1.949063e-004
4.431072000475465e-009	3.185574e-001	1.749517e+000	-1.387605e-004
4.631072000475465e-009	3.221011e-001	1.148670e+000	-8.013934e-005
4.731072000475465e-009	3.231131e-001	8.408476e-001	-5.018494e-005
4.831072000475465e-009	3.236234e-001	5.297071e-001	-1.995738e-005
5.131072000475465e-009	3.221489e-001	-4.113095e-001	7.117015e-005
5.331072000475466e-009	3.186279e-001	-1.032609e+000	1.310891e-004
5.531072000475466e-009	3.130113e-001	-1.637623e+000	1.892251e-004
5.731072000475466e-009	3.052238e-001	-2.216810e+000	2.446453e-004
5.931072000475466e-009	2.951954e-001	-2.761038e+000	2.964572e-004
6.131072000475466e-009	2.828902e-001	-3.261722e+000	3.438246e-004
6.331072000475466e-009	2.683354e-001	-3.710967e+000	3.859845e-004
6.531072000475466e-009	2.516426e-001	-4.101687e+000	4.222605e-004
6.731072000475467e-009	2.330131e-001	-4.427722e+000	4.520744e-004
6.931072000475467e-009	2.127265e-001	-4.683929e+000	4.749548e-004
7.131072000475467e-009	1.911191e-001	-4.866267e+000	4.905423e-004
7.331072000475467e-009	1.685620e-001	-4.971862e+000	4.985940e-004
7.531072000475466e-009	1.454448e-001	-4.999047e+000	4.989863e-004
7.731072000475465e-009	1.221647e-001	-4.947394e+000	4.917163e-004
7.931072000475463e-009	9.912075e-002	-4.817719e+000	4.769015e-004
8.131072000475462e-009	7.670845e-002	-4.612064e+000	4.547788e-004
8.331072000475460e-009	5.531527e-002	-4.333675e+000	4.257004e-004
8.431072000475459e-009	4.511831e-002	-4.168533e+000	4.086931e-004
8.531072000475459e-009	3.531478e-002	-3.986941e+000	3.901283e-004
8.631072000475458e-009	2.594813e-002	-3.789613e+000	3.700799e-004
8.731072000475457e-009	1.706010e-002	-3.577330e+000	3.486273e-004
8.831072000475456e-009	8.690478e-003	-3.350929e+000	3.258557e-004
8.931072000475456e-009	8.768700e-004	-3.111303e+000	3.018554e-004
9.031072000475455e-009	-6.345490e-003	-2.859399e+000	2.767215e-004
9.131072000475454e-009	-1.294397e-002	-2.596209e+000	2.505537e-004
9.231072000475453e-009	-1.888873e-002	-2.322774e+000	2.234556e-004
9.331072000475453e-009	-2.415293e-002	-2.040171e+000	1.955345e-004
9.431072000475452e-009	-2.871285e-002	-1.749517e+000	1.669008e-004
9.531072000475451e-009	-3.254810e-002	-1.451959e+000	1.376678e-004
9.631072000475450e-009	-3.564171e-002	-1.148670e+000	1.079509e-004
9.731072000475450e-009	-3.798024e-002	-8.408476e-001	7.786774e-005
9.831072000475449e-009	-3.955389e-002	-5.297071e-001	4.753695e-005
9.931072000475448e-009	-4.035655e-002	-2.164760e-001	1.707824e-005
1.003107200047545e-008	-4.038582e-002	9.760937e-002	-1.338824e-005
1.013107200047545e-008	-3.964307e-002	4.113095e-001	-4.374241e-005
1.023107200047545e-008	-3.813338e-002	7.233864e-001	-7.386467e-005
1.033107200047545e-008	-3.586553e-002	1.032609e+000	-1.036364e-004
1.043107200047544e-008	-3.285195e-002	1.337755e+000	-1.329405e-004
1.053107200047544e-008	-2.910859e-002	1.637623e+000	-1.616617e-004
1.063107200047544e-008	-2.465487e-002	1.931027e+000	-1.896870e-004
1.073107200047544e-008	-1.951353e-002	2.216810e+000	-2.169065e-004
1.083107200047544e-008	-1.371046e-002	2.493845e+000	-2.432131e-004
1.093107200047544e-008	-7.274590e-003	2.761038e+000	-2.685037e-004
1.103107200047544e-008	-2.376342e-004	3.017334e+000	-2.926791e-004
1.113107200047544e-008	7.366049e-003	3.261722e+000	-3.156444e-004
1.123107200047544e-008	1.549969e-002	3.493237e+000	-3.373098e-004
1.133107200047544e-008	2.412432e-002	3.710967e+000	-3.575904e-004
1.143107200047544e-008	3.319901e-002	3.914051e+000	-3.764068e-004
1.153107200047544e-008	4.268107e-002	4.101687e+000	-3.936854e-004
1.163107200047544e-008	5.252633e-002	4.273137e+000	-4.093587e-004
1.183107200047543e-008	7.312356e-002	4.564833e+000	-4.356510e-004
1.203107200047543e-008	9.461568e-002	4.784539e+000	-4.548741e-004
1.223107200047543e-008	1.166177e-001	4.928791e+000	-4.667291e-004
1.243107200047543e-008	1.387409e-001	4.995312e+000	-4.710332e-004
1.263107200047543e-008	1.605982e-001	4.983054e+000	-4.677222e-004
1.283107200047543e-008	1.818106e-001	4.892210e+000	-4.568517e-004
1.303107200047543e-008	2.020129e-001	4.724214e+000	-4.385961e-004
1.323107200047542e-008	2.208641e-001	4.481713e+000	-4.132453e-004
1.343107200047542e-008	2.380591e-001	4.168533e+000	-3.812001e-004
1.363107200047542e-008	2.533435e-001	3.789613e+000	-3.429642e-004
1.383107200047542e-008	2.665264e-001	3.350929e+000	-2.991356e-004
1.403107200047542e-008	2.774860e-001	2.859399e+000	-2.503972e-004
1.423107200047542e-008	2.861638e-001	2.322774e+000	-1.975066e-004
1.443107200047541e-008	2.925491e-001	1.749517e+000	-1.412856e-004
1.463107200047541e-008	2.966573e-001	1.148670e+000	-8.260962e-005
1.473107200047541e-008	2.978641e-001	8.408476e-001	-5.263630e-005
1.483107200047541e-008	2.985088e-001	5.297071e-001	-2.239569e-005
1.513107200047541e-008	2.970707e-001	-4.113095e-001	6.873538e-005
1.533107200047541e-008	2.932810e-001	-1.032609e+000	1.286282e-004
1.553107200047542e-008	2.871894e-001	-1.637623e+000	1.867181e-004
1.573107200047542e-008	2.787619e-001	-2.216810e+000	2.420762e-004
1.593107200047542e-008	2.679845e-001	-2.761038e+000	2.938154e-004
1.613107200047542e-008	2.548859e-001	-3.261722e+000	3.411058e-004
1.633107200047542e-008	2.395560e-001	-3.710967e+000	3.831904e-004
1.653107200047542e-008	2.221557e-001	-4.101687e+000	4.193977e-004
1.673107200047543e-008	2.029132e-001	-4.427722e+000	4.491521e-004
1.693107200047543e-008	1.821132e-001	-4.683929e+000	4.719826e-004
1.713107200047543e-008	1.600818e-001	-4.866267e+000	4.875289e-004
1.733107200047543e-008	1.371736e-001	-4.971862e+000	4.955466e-004
1.753107200047543e-008	1.137618e-001	-4.999047e+000	4.959104e-004
1.773107200047544e-008	9.023114e-002	-4.947394e+000	4.886159e-004
1.793107200047544e-008	6.697257e-002	-4.817719e+000	4.737804e-004
1.813107200047544e-008	4.437762e-002	-4.612064e+000	4.516399e-004
1.823107200047544e-008	3.345007e-002	-4.481713e+000	4.379360e-004
1.833107200047544e-008	2.283245e-002	-4.333675e+000	4.225468e-004
1.843107200047544e-008	1.257106e-002	-4.168533e+000	4.055332e-004
1.853107200047544e-008	2.711016e-003	-3.986941e+000	3.869629e-004
1.863107200047544e-008	-6.704065e-003	-3.789613e+000	3.669097e-004
1.873107200047544e-008	-1.563224e-002	-3.577330e+000	3.454533e-004
1.883107200047545e-008	-2.403352e-002	-3.350929e+000	3.226786e-004
1.893107200047545e-008	-3.187008e-002	-3.111303e+000	2.986761e-004
1.903107200047545e-008	-3.910650e-002	-2.859399e+000	2.735408e-004
1.913107200047545e-008	-4.570996e-002	-2.596209e+000	2.473726e-004
1.923107200047545e-008	-5.165047e-002	-2.322774e+000	2.202749e-004
1.933107200047545e-008	-5.690106e-002	-2.040171e+000	1.923551e-004
1.943107200047545e-008	-6.143791e-002	-1.749517e+000	1.637236e-004
1.953107200047545e-008	-6.524055e-002	-1.451959e+000	1.344937e-004
1.963107200047545e-008	-6.829196e-002	-1.148670e+000	1.047810e-004
1.973107200047545e-008	-7.057870e-002	-8.408476e-001	7.470285e-005
1.983107200047545e-008	-7.209098e-002	-5.297071e-001	4.437800e-005
1.993107200047546e-008	-7.288361e-002	-2.164760e-001	1.392457e-005
2.000000000000000e-008	-7.306714e-002	-2.449294e-015	-7.093897e-006
