time	V(vd)	V(n001)	I(R1)
0.000000000000000e+000	0.000000e+000	0.000000e+000	0.000000e+000
4.262857180698917e-009	-7.314300e-007	-2.217655e-007	-4.948200e-011
8.525714361397835e-009	-5.044272e-007	2.598448e-006	-3.012500e-010
1.278857154209675e-008	6.810083e-007	8.460640e-006	-7.553041e-010
1.705142872279567e-008	2.824877e-006	1.736481e-005	-1.411644e-009
2.131428590349459e-008	5.927178e-006	2.931096e-005	-2.270270e-009
2.557714308419350e-008	9.987912e-006	4.429909e-005	-3.331183e-009
2.984000026489241e-008	1.500708e-005	6.232920e-005	-4.594381e-009
9.128000108520441e-008	1.496870e-004	2.553487e-004	-1.025841e-008
2.518181406327130e-007	6.300882e-004	7.596941e-004	-1.258310e-008
1.505647619857269e-005	4.707718e-002	4.726920e-002	-1.858354e-008
2.995386385656206e-005	9.356384e-002	9.406587e-002	-4.827474e-008
5.974863917254080e-005	1.821965e-001	1.876304e-001	-5.249545e-007
1.047058238855437e-004	2.923065e-001	3.286745e-001	-3.524205e-006
1.514811595752174e-004	3.657927e-001	4.751426e-001	-1.060631e-005
1.992221519443942e-004	4.045078e-001	6.242105e-001	-2.130958e-005
2.693813842892200e-004	4.348550e-001	8.422207e-001	-3.950779e-005
3.436748961286552e-004	4.548028e-001	1.071285e+000	-5.977449e-005
4.436748961286552e-004	4.727135e-001	1.375832e+000	-8.754966e-005
5.436748961286552e-004	4.858260e-001	1.674950e+000	-1.152885e-004
7.436748961286553e-004	5.036218e-001	2.252202e+000	-1.695493e-004
9.436748961286554e-004	5.157399e-001	2.793934e+000	-2.209162e-004
1.143674896128655e-003	5.246329e-001	3.291604e+000	-2.683227e-004
1.343674896128655e-003	5.313632e-001	3.737364e+000	-3.109042e-004
1.543674896128656e-003	5.365010e-001	4.124183e+000	-3.479236e-004
1.743674896128656e-003	5.403782e-001	4.445962e+000	-3.787570e-004
1.943674896128656e-003	5.431987e-001	4.697625e+000	-4.028924e-004
2.143674896128656e-003	5.450900e-001	4.875204e+000	-4.199324e-004
2.343674896128655e-003	5.461290e-001	4.975897e+000	-4.295979e-004
2.543674896128655e-003	5.463553e-001	4.998118e+000	-4.317312e-004
2.743674896128655e-003	5.457771e-001	4.941516e+000	-4.262974e-004
2.943674896128654e-003	5.443728e-001	4.806983e+000	-4.133852e-004
3.143674896128654e-003	5.420879e-001	4.596641e+000	-3.932056e-004
3.343674896128654e-003	5.388255e-001	4.313807e+000	-3.660899e-004
3.543674896128653e-003	5.344289e-001	3.962942e+000	-3.324857e-004
3.743674896128653e-003	5.286465e-001	3.549579e+000	-2.929544e-004
3.943674896128653e-003	5.210609e-001	3.080237e+000	-2.481686e-004
4.143674896128653e-003	5.109261e-001	2.562318e+000	-1.989188e-004
4.343674896128654e-003	4.967321e-001	2.003989e+000	-1.461437e-004
4.443674896128654e-003	4.871179e-001	1.712402e+000	-1.187956e-004
4.543674896128654e-003	4.746400e-001	1.414057e+000	-9.107003e-005
4.643674896128654e-003	4.569083e-001	1.110131e+000	-6.331329e-005
4.743674896128655e-003	4.262353e-001	8.018234e-001	-3.638805e-005
4.843674896128655e-003	3.570683e-001	4.903518e-001	-1.290613e-005
4.911443781290120e-003	2.426836e-001	2.780954e-001	-3.423997e-006
4.993704897355337e-003	1.836444e-002	1.980801e-002	-1.381553e-007
5.032512060059660e-003	-1.019471e-001	-1.021011e-001	1.350913e-008
5.247506523998441e-003	-7.735114e-001	-7.744033e-001	1.241673e-008
5.447506523998441e-003	-1.385918e+000	-1.387401e+000	1.105686e-008
5.647506523998442e-003	-1.976464e+000	-1.978519e+000	9.986072e-009
5.847506523998442e-003	-2.535837e+000	-2.538434e+000	9.056633e-009
6.047506523998443e-003	-3.055215e+000	-3.058317e+000	8.202024e-009
6.247506523998444e-003	-3.526409e+000	-3.529968e+000	7.388249e-009
6.447506523998444e-003	-3.941989e+000	-3.945950e+000	6.596659e-009
6.647506523998445e-003	-4.295399e+000	-4.299701e+000	5.816688e-009
6.847506523998445e-003	-4.581068e+000	-4.585644e+000	5.042348e-009
7.047506523998446e-003	-4.794489e+000	-4.799268e+000	4.270375e-009
7.247506523998446e-003	-4.932298e+000	-4.937205e+000	3.499150e-009
7.447506523998447e-003	-4.992321e+000	-4.997280e+000	2.728021e-009
7.647506523998447e-003	-4.973612e+000	-4.978544e+000	1.956820e-009
7.847506523998448e-003	-4.876465e+000	-4.881293e+000	1.185479e-009
8.047506523998447e-003	-4.702414e+000	-4.707062e+000	4.136544e-010
8.247506523998445e-003	-4.454202e+000	-4.458598e+000	-3.596896e-010
8.447506523998444e-003	-4.135746e+000	-4.139819e+000	-1.136840e-009
8.647506523998443e-003	-3.752066e+000	-3.755752e+000	-1.922174e-009
8.847506523998442e-003	-3.309215e+000	-3.312455e+000	-2.723538e-009
9.047506523998440e-003	-2.814176e+000	-2.816918e+000	-3.554723e-009
9.247506523998439e-003	-2.274756e+000	-2.276957e+000	-4.440350e-009
9.447506523998438e-003	-1.699465e+000	-1.701087e+000	-5.426601e-009
9.647506523998437e-003	-1.097375e+000	-1.098390e+000	-6.608589e-009
9.847506523998436e-003	-4.779838e-001	-4.783710e-001	-8.234426e-009
9.947506523998435e-003	-1.650203e-001	-1.649146e-001	-2.605539e-008
1.004750652399843e-002	1.337816e-001	1.491926e-001	-1.486430e-006
1.012725751120647e-002	3.191625e-001	3.993341e-001	-7.765964e-006
1.018820602071088e-002	3.952408e-001	5.898584e-001	-1.887283e-005
1.025200886958775e-002	4.285320e-001	7.883740e-001	-3.489525e-005
1.033476734951530e-002	4.524270e-001	1.043934e+000	-5.734370e-005
1.043476734951530e-002	4.713513e-001	1.348907e+000	-8.507042e-005
1.053476734951530e-002	4.848315e-001	1.648557e+000	-1.128252e-004
1.073476734951530e-002	5.029791e-001	2.227182e+000	-1.671850e-004
1.093476734951530e-002	5.152794e-001	2.770683e+000	-2.187058e-004
1.113476734951529e-002	5.242884e-001	3.270488e+000	-2.663081e-004
1.133476734951529e-002	5.311005e-001	3.718716e+000	-3.091210e-004
1.153476734951529e-002	5.363010e-001	4.108298e+000	-3.464023e-004
1.173476734951529e-002	5.402291e-001	4.433089e+000	-3.775229e-004
1.193476734951529e-002	5.430936e-001	4.687967e+000	-4.019659e-004
1.213476734951529e-002	5.450243e-001	4.868914e+000	-4.193287e-004
1.233476734951529e-002	5.461003e-001	4.973075e+000	-4.293270e-004
1.253476734951529e-002	5.463623e-001	4.998808e+000	-4.317974e-004
1.273476734951528e-002	5.458201e-001	4.945706e+000	-4.266996e-004
1.293476734951528e-002	5.444536e-001	4.814608e+000	-4.141169e-004
1.313476734951528e-002	5.422096e-001	4.607580e+000	-3.942548e-004
1.333476734951528e-002	5.389935e-001	4.327888e+000	-3.674393e-004
1.353476734951528e-002	5.346519e-001	3.979943e+000	-3.341131e-004
1.373476734951528e-002	5.289385e-001	3.569232e+000	-2.948322e-004
1.393476734951528e-002	5.214456e-001	3.102232e+000	-2.502646e-004
1.413476734951528e-002	5.114482e-001	2.586307e+000	-2.011949e-004
1.433476734951527e-002	4.974880e-001	2.029595e+000	-1.485539e-004
1.443476734951527e-002	4.880708e-001	1.738666e+000	-1.212505e-004
1.453476734951527e-002	4.759099e-001	1.440876e+000	-9.354798e-005
1.463476734951527e-002	4.588077e-001	1.137398e+000	-6.577365e-005
1.473476734951527e-002	4.300261e-001	8.294324e-001	-3.869785e-005
1.483476734951527e-002	3.661914e-001	5.181929e-001	-1.471976e-005
1.490657613896016e-002	2.508435e-001	2.933626e-001	-4.111420e-006
1.499384003135191e-002	1.743908e-002	1.938348e-002	-1.864403e-007
1.503539637271532e-002	-1.110043e-001	-1.111604e-001	1.354456e-008
1.524888345741704e-002	-7.777805e-001	-7.786766e-001	1.240581e-008
1.544888345741704e-002	-1.390070e+000	-1.391557e+000	1.104880e-008
1.564888345741703e-002	-1.980432e+000	-1.982491e+000	9.979326e-009
1.584888345741703e-002	-2.539559e+000	-2.542160e+000	9.050567e-009
1.604888345741703e-002	-3.058633e+000	-3.061738e+000	8.196326e-009
1.624888345741703e-002	-3.529469e+000	-3.533031e+000	7.382751e-009
1.644888345741703e-002	-3.944641e+000	-3.948605e+000	6.591268e-009
1.664888345741703e-002	-4.297603e+000	-4.301908e+000	5.811351e-009
1.684888345741703e-002	-4.582788e+000	-4.587367e+000	5.037034e-009
1.704888345741703e-002	-4.795700e+000	-4.800480e+000	4.265068e-009
1.724888345741702e-002	-4.932979e+000	-4.937887e+000	3.493844e-009
1.744888345741702e-002	-4.992462e+000	-4.997420e+000	2.722713e-009
1.764888345741702e-002	-4.973210e+000	-4.978142e+000	1.951510e-009
1.784888345741702e-002	-4.875527e+000	-4.880354e+000	1.180165e-009
1.804888345741702e-002	-4.700954e+000	-4.705602e+000	4.083322e-010
1.824888345741702e-002	-4.452245e+000	-4.456638e+000	-3.650287e-010
1.844888345741702e-002	-4.133321e+000	-4.137391e+000	-1.142220e-009
1.864888345741702e-002	-3.749212e+000	-3.752895e+000	-1.927635e-009
1.884888345741701e-002	-3.305976e+000	-3.309213e+000	-2.729152e-009
1.904888345741701e-002	-2.810604e+000	-2.813343e+000	-3.560615e-009
1.924888345741701e-002	-2.270908e+000	-2.273105e+000	-4.446749e-009
1.944888345741701e-002	-1.695401e+000	-1.697019e+000	-5.433947e-009
1.964888345741701e-002	-1.093158e+000	-1.094170e+000	-6.617848e-009
1.984888345741701e-002	-4.736821e-001	-4.740649e-001	-8.249865e-009
1.994888345741701e-002	-1.605895e-001	-1.605911e-001	-1.021320e-008
2.000000000000000e-002	-1.746361e-004	-3.141593e-005	-1.390487e-008
