time	V(vd)	V(n001)	I(R1)
0.000000000000000e+000	0.000000e+000	0.000000e+000	0.000000e+000
1.885828596416349e-007	4.928324e-005	5.705475e-005	7.545148e-010
3.771657192832699e-007	1.011103e-004	1.146900e-004	1.318417e-009
5.657485789249048e-007	1.554812e-004	1.729057e-004	1.691705e-009
7.543314385665397e-007	2.123959e-004	2.317020e-004	1.874381e-009
9.429142982081746e-007	2.718544e-004	2.910788e-004	1.866445e-009
1.131497157849810e-006	3.338567e-004	3.510360e-004	1.667895e-009
1.320080017491444e-006	3.984029e-004	4.115738e-004	1.278732e-009
2.510028604927697e-005	7.865205e-003	7.882369e-003	1.668303e-009
4.888049208106250e-005	1.532967e-002	1.535311e-002	2.275020e-009
7.266069811284803e-005	2.279180e-002	2.282380e-002	3.098883e-009
9.644090414463356e-005	3.025158e-002	3.029443e-002	4.139893e-009
1.202211101764191e-004	3.770903e-002	3.776501e-002	5.398049e-009
1.440013162082046e-004	4.516415e-002	4.523553e-002	6.873351e-009
1.677815222399901e-004	5.261692e-002	5.270600e-002	8.565800e-009
3.355536844799887e-004	1.048246e-001	1.054064e-001	5.586017e-008
6.710980089599859e-004	2.035170e-001	2.107660e-001	7.013747e-007
1.081425536894767e-003	2.995120e-001	3.394754e-001	3.873833e-006
1.587432091498377e-003	3.726196e-001	4.978769e-001	1.214955e-005
2.080915145275285e-003	4.092521e-001	6.518747e-001	2.353419e-005
2.863958707913250e-003	4.399045e-001	8.948882e-001	4.412933e-005
3.661891014133660e-003	4.595970e-001	1.140291e+000	6.601431e-005
4.661891014133661e-003	4.762623e-001	1.443720e+000	9.381993e-005
5.661891014133661e-003	4.884076e-001	1.741451e+000	1.215147e-004
7.661891014133661e-003	5.051962e-001	2.315148e+000	1.755051e-004
9.661891014133662e-003	5.168775e-001	2.852333e+000	2.264710e-004
1.166189101413366e-002	5.254860e-001	3.344536e+000	2.733742e-004
1.366189101413367e-002	5.320143e-001	3.783993e+000	3.153638e-004
1.566189101413367e-002	5.369964e-001	4.163774e+000	3.517156e-004
1.766189101413367e-002	5.407460e-001	4.477890e+000	3.818182e-004
1.966189101413367e-002	5.434565e-001	4.721387e+000	4.051721e-004
2.166189101413367e-002	5.452487e-001	4.890425e+000	4.213934e-004
2.366189101413367e-002	5.461948e-001	4.982338e+000	4.302163e-004
2.566189101413368e-002	5.463305e-001	4.995677e+000	4.314969e-004
2.766189101413368e-002	5.456609e-001	4.930231e+000	4.252142e-004
2.966189101413368e-002	5.441607e-001	4.787032e+000	4.114707e-004
3.166189101413368e-002	5.417714e-001	4.568338e+000	3.904913e-004
3.366189101413368e-002	5.383903e-001	4.277600e+000	3.626204e-004
3.566189101413368e-002	5.338524e-001	3.919401e+000	3.283187e-004
3.766189101413368e-002	5.278918e-001	3.499391e+000	2.881600e-004
3.966189101413369e-002	5.200648e-001	3.024193e+000	2.428299e-004
4.166189101413369e-002	5.095701e-001	2.501302e+000	1.931331e-004
4.366189101413369e-002	4.947531e-001	1.938964e+000	1.400311e-004
4.466189101413369e-002	4.846058e-001	1.645753e+000	1.125798e-004
4.566189101413369e-002	4.712510e-001	1.346047e+000	8.481509e-005
4.666189101413369e-002	4.516987e-001	1.041029e+000	5.713311e-005
4.766189101413369e-002	4.148494e-001	7.319024e-001	3.071939e-005
4.866189101413369e-002	3.197043e-001	4.198874e-001	9.694149e-006
4.943553126717796e-002	1.610172e-001	1.772991e-001	1.571170e-006
5.014493884334407e-002	-4.578354e-002	-4.553011e-002	2.648209e-008
5.081379143567509e-002	-2.553943e-001	-2.555456e-001	-3.431049e-009
5.249740857652385e-002	-7.805580e-001	-7.813651e-001	-3.508525e-009
5.449740857652385e-002	-1.392761e+000	-1.394171e+000	-3.373585e-009
5.649740857652385e-002	-1.982997e+000	-1.984989e+000	-3.267256e-009
5.849740857652385e-002	-2.541960e+000	-2.544504e+000	-3.174925e-009
6.049740857652385e-002	-3.060835e+000	-3.063890e+000	-3.089988e-009
6.249740857652385e-002	-3.531437e+000	-3.534956e+000	-3.009063e-009
6.449740857652385e-002	-3.946347e+000	-3.950274e+000	-2.930292e-009
6.649740857652385e-002	-4.299019e+000	-4.303294e+000	-2.852618e-009
6.849740857652385e-002	-4.583893e+000	-4.588449e+000	-2.775441e-009
7.049740857652385e-002	-4.796475e+000	-4.801240e+000	-2.698435e-009
7.249740857652386e-002	-4.933414e+000	-4.938314e+000	-2.621435e-009
7.449740857652386e-002	-4.992550e+000	-4.997507e+000	-2.544373e-009
7.649740857652386e-002	-4.972950e+000	-4.977887e+000	-2.467234e-009
7.849740857652386e-002	-4.874923e+000	-4.879762e+000	-2.390012e-009
8.049740857652386e-002	-4.700015e+000	-4.704680e+000	-2.312672e-009
8.249740857652387e-002	-4.450985e+000	-4.455404e+000	-2.235111e-009
8.449740857652387e-002	-4.131759e+000	-4.135862e+000	-2.157104e-009
8.649740857652387e-002	-3.747373e+000	-3.751096e+000	-2.078214e-009
8.849740857652387e-002	-3.303889e+000	-3.307172e+000	-1.997656e-009
9.049740857652387e-002	-2.808300e+000	-2.811093e+000	-1.914049e-009
9.249740857652387e-002	-2.268422e+000	-2.270681e+000	-1.824920e-009
9.449740857652388e-002	-1.692769e+000	-1.694458e+000	-1.725624e-009
9.649740857652388e-002	-1.090420e+000	-1.091514e+000	-1.606568e-009
9.849740857652388e-002	-4.708754e-001	-4.713552e-001	-1.424949e-009
9.949740857652388e-002	-1.579020e-001	-1.578707e-001	1.816952e-008
1.004974085765239e-001	1.376229e-001	1.562369e-001	1.795731e-006
1.013481972913375e-001	3.273496e-001	4.230392e-001	9.268585e-006
1.020081465350365e-001	4.029438e-001	6.292021e-001	2.193986e-005
1.026857820270176e-001	4.344273e-001	8.397612e-001	3.930807e-005
1.035037187999699e-001	4.560349e-001	1.091853e+000	6.164422e-005
1.045037187999699e-001	4.737224e-001	1.396074e+000	8.942123e-005
1.055037187999699e-001	4.865621e-001	1.694786e+000	1.171544e-004
1.075037187999699e-001	5.041000e-001	2.270991e+000	1.713299e-004
1.095037187999699e-001	5.160834e-001	2.811380e+000	2.225761e-004
1.115037187999699e-001	5.248902e-001	3.307433e+000	2.698334e-004
1.135037187999699e-001	5.315595e-001	3.751326e+000	3.122395e-004
1.155037187999699e-001	5.366505e-001	4.136058e+000	3.490610e-004
1.175037187999699e-001	5.404893e-001	4.455562e+000	3.796774e-004
1.195037187999699e-001	5.432768e-001	4.704798e+000	4.035806e-004
1.215037187999699e-001	5.451385e-001	4.879838e+000	4.203772e-004
1.235037187999699e-001	5.461498e-001	4.977919e+000	4.297921e-004
1.255037187999699e-001	5.463490e-001	4.997496e+000	4.316715e-004
1.275037187999699e-001	5.457435e-001	4.938259e+000	4.259849e-004
1.295037187999699e-001	5.443107e-001	4.801143e+000	4.128249e-004
1.315037187999699e-001	5.419948e-001	4.588310e+000	3.924067e-004
1.335037187999699e-001	5.386972e-001	4.303117e+000	3.650655e-004
1.355037187999699e-001	5.342588e-001	3.950061e+000	3.312530e-004
1.375037187999699e-001	5.284238e-001	3.534710e+000	2.915340e-004
1.395037187999699e-001	5.207671e-001	3.063615e+000	2.465852e-004
1.415037187999699e-001	5.105270e-001	2.544204e+000	1.972013e-004
1.435037187999699e-001	4.961517e-001	1.984670e+000	1.443282e-004
1.445037187999699e-001	4.863840e-001	1.692593e+000	1.169497e-004
1.455037187999699e-001	4.736560e-001	1.393837e+000	8.921484e-005
1.465037187999699e-001	4.554179e-001	1.089579e+000	6.147810e-005
1.475037187999699e-001	4.231332e-001	7.810215e-001	3.467770e-005
1.485037187999699e-001	3.412620e-001	4.693816e-001	1.240088e-005
1.493192459330169e-001	1.886692e-001	2.138031e-001	2.426975e-006
1.501001369381723e-001	-3.204243e-002	-3.145560e-002	5.793747e-008
1.507637868078938e-001	-2.397241e-001	-2.398555e-001	-3.362632e-009
1.523898029668810e-001	-7.471834e-001	-7.479575e-001	-3.517129e-009
1.543898029668810e-001	-1.360296e+000	-1.361675e+000	-3.379923e-009
1.563898029668810e-001	-1.951956e+000	-1.953917e+000	-3.272537e-009
1.583898029668810e-001	-2.512831e+000	-2.515345e+000	-3.179663e-009
1.603898029668811e-001	-3.034076e+000	-3.037105e+000	-3.094434e-009
1.623898029668811e-001	-3.507473e+000	-3.510967e+000	-3.013351e-009
1.643898029668811e-001	-3.925553e+000	-3.929460e+000	-2.934495e-009
1.663898029668811e-001	-4.281724e+000	-4.285983e+000	-2.856780e-009
1.683898029668811e-001	-4.570371e+000	-4.574913e+000	-2.779588e-009
1.703898029668811e-001	-4.786939e+000	-4.791694e+000	-2.702578e-009
1.723898029668811e-001	-4.928013e+000	-4.932907e+000	-2.625578e-009
1.743898029668811e-001	-4.991370e+000	-4.996325e+000	-2.548521e-009
1.763898029668811e-001	-4.976009e+000	-4.980949e+000	-2.471388e-009
1.783898029668811e-001	-4.882173e+000	-4.887020e+000	-2.394169e-009
1.803898029668811e-001	-4.711342e+000	-4.716019e+000	-2.316837e-009
1.823898029668811e-001	-4.466210e+000	-4.470644e+000	-2.239293e-009
1.843898029668811e-001	-4.150643e+000	-4.154764e+000	-2.161319e-009
1.863898029668811e-001	-3.769617e+000	-3.773361e+000	-2.082492e-009
1.883898029668811e-001	-3.329142e+000	-3.332451e+000	-2.002052e-009
1.903898029668811e-001	-2.836164e+000	-2.838985e+000	-1.918658e-009
1.923898029668811e-001	-2.298458e+000	-2.300747e+000	-1.829919e-009
1.943898029668811e-001	-1.724504e+000	-1.726224e+000	-1.731349e-009
1.963898029668811e-001	-1.123352e+000	-1.124479e+000	-1.613756e-009
1.983898029668811e-001	-5.044858e-001	-5.049989e-001	-1.445760e-009
1.993898029668811e-001	-1.915097e-001	-1.916552e-001	-5.448441e-010
2.000000000000000e-001	-1.218310e-005	-3.141593e-006	8.779337e-010
