time	V(vd)	V(n001)	I(R1)
0.000000000000000e+000	0.000000e+000	0.000000e+000	0.000000e+000
1.000000000000000e-008	0.000000e+000	0.000000e+000	0.000000e+000
1.153599999386245e-008	1.365024e-005	4.825486e-004	-4.552411e-008
1.358399998567904e-008	6.271285e-005	1.125947e-003	-1.032266e-007
1.767999996931224e-008	2.621645e-004	2.412743e-003	-2.087940e-007
2.587199993657862e-008	9.623034e-004	4.986335e-003	-3.906826e-007
3.753737320408825e-008	2.451522e-003	8.651117e-003	-6.019023e-007
4.855977573310032e-008	4.351890e-003	1.211390e-002	-7.535929e-007
6.512386174609069e-008	7.887374e-003	1.731764e-002	-9.155590e-007
8.478496362354493e-008	1.275861e-002	2.349430e-002	-1.042299e-006
1.139680512979286e-007	2.080824e-002	3.266229e-002	-1.150876e-006
1.510129034153341e-007	3.173152e-002	4.429993e-002	-1.220225e-006
2.076127267561627e-007	4.904554e-002	6.208028e-002	-1.265479e-006
2.904451685318042e-007	7.472908e-002	8.809989e-002	-1.298022e-006
4.422830669538370e-007	1.216035e-001	1.357890e-001	-1.376566e-006
7.459588637979026e-007	2.097066e-001	2.311259e-001	-2.076547e-006
1.168491704479493e-006	3.066083e-001	3.636296e-001	-5.528523e-006
1.668378725477523e-006	3.766195e-001	5.200528e-001	-1.391298e-005
2.172824939104980e-006	4.124577e-001	6.773821e-001	-2.569629e-005
2.897634052319905e-006	4.402375e-001	9.022080e-001	-4.480384e-005
3.655638714700318e-006	4.588778e-001	1.135322e+000	-6.558993e-005
4.655638714700318e-006	4.757314e-001	1.438834e+000	-9.336724e-005
5.655638714700318e-006	4.880306e-001	1.736667e+000	-1.210605e-004
7.655638714700318e-006	5.049429e-001	2.310624e+000	-1.750875e-004
9.655638714700319e-006	5.166947e-001	2.848141e+000	-2.260812e-004
1.165563871470032e-005	5.253490e-001	3.340741e+000	-2.730190e-004
1.365563871470032e-005	5.319099e-001	3.780655e+000	-3.150500e-004
1.565563871470032e-005	5.369172e-001	4.160947e+000	-3.514490e-004
1.765563871470032e-005	5.406873e-001	4.475617e+000	-3.816033e-004
1.965563871470033e-005	5.434155e-001	4.719705e+000	-4.050129e-004
2.165563871470033e-005	5.452238e-001	4.889360e+000	-4.212925e-004
2.365563871470033e-005	5.461848e-001	4.981907e+000	-4.301755e-004
2.565563871470033e-005	5.463352e-001	4.995886e+000	-4.315167e-004
2.765563871470033e-005	5.456803e-001	4.931077e+000	-4.252944e-004
2.965563871470033e-005	5.441958e-001	4.788503e+000	-4.116099e-004
3.165563871470033e-005	5.418235e-001	4.570410e+000	-3.906871e-004
3.365563871470032e-005	5.384619e-001	4.280240e+000	-3.628694e-004
3.565563871470031e-005	5.339472e-001	3.922567e+000	-3.286165e-004
3.765563871470031e-005	5.280163e-001	3.503034e+000	-2.885011e-004
3.965563871470030e-005	5.202297e-001	3.028255e+000	-2.432075e-004
4.165563871470030e-005	5.097961e-001	2.505719e+000	-1.935389e-004
4.365563871470029e-005	4.950874e-001	1.943666e+000	-1.404525e-004
4.465563871470029e-005	4.850354e-001	1.650571e+000	-1.130006e-004
4.565563871470029e-005	4.718427e-001	1.350961e+000	-8.522185e-005
4.665563871470028e-005	4.526533e-001	1.046019e+000	-5.750815e-005
4.765563871470028e-005	4.172343e-001	7.369497e-001	-3.096975e-005
4.865563871470028e-005	3.340237e-001	4.249718e-001	-8.801024e-006
4.930963983901954e-005	2.104992e-001	2.199536e-001	-9.079603e-007
5.006902874852448e-005	-6.297917e-003	-1.854439e-002	1.189533e-006
5.046879032369649e-005	-1.316952e-001	-1.441133e-001	1.203689e-006
5.155915766968040e-005	-4.744259e-001	-4.859141e-001	1.079543e-006
5.255915766968040e-005	-7.864265e-001	-7.974218e-001	9.911150e-007
5.355915766968040e-005	-1.095240e+000	-1.105782e+000	9.176563e-007
5.455915766968040e-005	-1.399585e+000	-1.409779e+000	8.546700e-007
5.655915766968039e-005	-1.990232e+000	-1.999903e+000	7.473548e-007
5.855915766968039e-005	-2.549225e+000	-2.558488e+000	6.542399e-007
6.055915766968038e-005	-3.067831e+000	-3.076723e+000	5.686363e-007
6.255915766968038e-005	-3.537920e+000	-3.546437e+000	4.871346e-007
6.455915766968038e-005	-3.952113e+000	-3.960222e+000	4.078682e-007
6.655915766968037e-005	-4.303900e+000	-4.311551e+000	3.297807e-007
6.855915766968036e-005	-4.587752e+000	-4.594884e+000	2.522740e-007
7.055915766968036e-005	-4.799210e+000	-4.805754e+000	1.750224e-007
7.255915766968035e-005	-4.934951e+000	-4.940834e+000	9.786497e-008
7.455915766968035e-005	-4.992850e+000	-4.997994e+000	2.069967e-008
7.655915766968034e-005	-4.972004e+000	-4.976333e+000	-5.639169e-008
7.855915766968034e-005	-4.872756e+000	-4.876192e+000	-1.334881e-007
8.055915766968033e-005	-4.696683e+000	-4.699150e+000	-2.106264e-007
8.255915766968032e-005	-4.446577e+000	-4.448000e+000	-2.878978e-007
8.455915766968032e-005	-4.126396e+000	-4.126703e+000	-3.655320e-007
8.655915766968031e-005	-3.741207e+000	-3.740324e+000	-4.439675e-007
8.855915766968031e-005	-3.297106e+000	-3.294959e+000	-5.239897e-007
9.055915766968030e-005	-2.801122e+000	-2.797631e+000	-6.069777e-007
9.255915766968030e-005	-2.261118e+000	-2.256181e+000	-6.953898e-007
9.455915766968029e-005	-1.685671e+000	-1.679151e+000	-7.938278e-007
9.555915766968029e-005	-1.387506e+000	-1.380119e+000	-8.494188e-007
9.655915766968029e-005	-1.083969e+000	-1.075640e+000	-9.117381e-007
9.755915766968028e-005	-7.762944e-001	-7.669154e-001	-9.840479e-007
9.855915766968028e-005	-4.657570e-001	-4.551646e-001	-1.071988e-006
9.955915766968028e-005	-1.538991e-001	-1.416174e-001	-1.205967e-006
1.005591576696803e-004	1.423215e-001	1.724887e-001	-2.917182e-006
1.013617460946807e-004	3.247209e-001	4.241532e-001	-9.633995e-006
1.019904755624049e-004	3.997870e-001	6.205803e-001	-2.141145e-005
1.026502889904366e-004	4.318641e-001	8.256719e-001	-3.818461e-005
1.035632222851386e-004	4.563868e-001	1.107028e+000	-6.307392e-005
1.045397751400766e-004	4.738241e-001	1.403936e+000	-9.017056e-005
1.055397751400766e-004	4.866046e-001	1.702488e+000	-1.178838e-004
1.075397751400766e-004	5.041404e-001	2.278283e+000	-1.720286e-004
1.095397751400766e-004	5.161114e-001	2.818149e+000	-2.232288e-004
1.115397751400766e-004	5.249115e-001	3.313570e+000	-2.704262e-004
1.135397751400766e-004	5.315760e-001	3.756735e+000	-3.127623e-004
1.155397751400766e-004	5.366631e-001	4.140654e+000	-3.495053e-004
1.175397751400766e-004	5.404987e-001	4.459271e+000	-3.800362e-004
1.195397751400766e-004	5.432835e-001	4.707564e+000	-4.038482e-004
1.215397751400766e-004	5.451427e-001	4.881616e+000	-4.205492e-004
1.235397751400765e-004	5.461515e-001	4.978682e+000	-4.298658e-004
1.255397751400765e-004	5.463483e-001	4.997230e+000	-4.316458e-004
1.275397751400765e-004	5.457405e-001	4.936970e+000	-4.258600e-004
1.295397751400765e-004	5.443053e-001	4.798851e+000	-4.126029e-004
1.315397751400765e-004	5.419867e-001	4.585050e+000	-3.920912e-004
1.335397751400765e-004	5.386862e-001	4.298941e+000	-3.646615e-004
1.355397751400765e-004	5.342443e-001	3.945035e+000	-3.307668e-004
1.375397751400765e-004	5.284051e-001	3.528913e+000	-2.909734e-004
1.395397751400765e-004	5.207429e-001	3.057139e+000	-2.459592e-004
1.415397751400765e-004	5.104951e-001	2.537151e+000	-1.965197e-004
1.435397751400765e-004	4.961081e-001	1.977151e+000	-1.436012e-004
1.445397751400765e-004	4.863318e-001	1.684886e+000	-1.162030e-004
1.455397751400765e-004	4.735928e-001	1.385970e+000	-8.844759e-005
1.465397751400765e-004	4.553463e-001	1.081585e+000	-6.069631e-005
1.475397751400765e-004	4.231057e-001	7.729320e-001	-3.388968e-005
1.485397751400765e-004	3.491889e-001	4.612281e-001	-1.084526e-005
1.492227761304371e-004	2.293540e-001	2.472128e-001	-1.721422e-006
1.500373872992658e-004	3.333721e-003	-8.603970e-003	1.160095e-006
1.504086563516596e-004	-1.127108e-001	-1.252285e-001	1.213680e-006
1.507764773381914e-004	-2.286609e-001	-2.407029e-001	1.161885e-006
1.515121193112550e-004	-4.596657e-001	-4.712044e-001	1.085113e-006
1.525121193112550e-004	-7.718112e-001	-7.828299e-001	9.947886e-007
1.535121193112550e-004	-1.080804e+000	-1.091366e+000	9.209335e-007
1.545121193112550e-004	-1.385387e+000	-1.395595e+000	8.573882e-007
1.565121193112550e-004	-1.976669e+000	-1.986351e+000	7.496350e-007
1.585121193112550e-004	-2.536509e+000	-2.545780e+000	6.562958e-007
1.605121193112550e-004	-3.056160e+000	-3.065061e+000	5.705716e-007
1.625121193112550e-004	-3.527479e+000	-3.536005e+000	4.890047e-007
1.645121193112550e-004	-3.943065e+000	-3.951183e+000	4.097041e-007
1.665121193112550e-004	-4.296387e+000	-4.304049e+000	3.315997e-007
1.685121193112550e-004	-4.581893e+000	-4.589037e+000	2.540858e-007
1.705121193112550e-004	-4.795095e+000	-4.801654e+000	1.768321e-007
1.725121193112550e-004	-4.932647e+000	-4.938546e+000	9.967454e-008
1.745121193112550e-004	-4.992391e+000	-4.997554e+000	2.250957e-008
1.765121193112550e-004	-4.973398e+000	-4.977747e+000	-5.458112e-008
1.785121193112550e-004	-4.875980e+000	-4.879438e+000	-1.316770e-007
1.805121193112550e-004	-4.701688e+000	-4.704178e+000	-2.088135e-007
1.825121193112550e-004	-4.453282e+000	-4.454731e+000	-2.860794e-007
1.845121193112550e-004	-4.134695e+000	-4.135028e+000	-3.637007e-007
1.865121193112550e-004	-3.750969e+000	-3.750115e+000	-4.421099e-007
1.885121193112549e-004	-3.308176e+000	-3.306060e+000	-5.220818e-007
1.905121193112549e-004	-2.813325e+000	-2.809866e+000	-6.049772e-007
1.925121193112549e-004	-2.274261e+000	-2.269359e+000	-6.932204e-007
1.945121193112549e-004	-1.699543e+000	-1.693063e+000	-7.913417e-007
1.955121193112549e-004	-1.401661e+000	-1.394316e+000	-8.466719e-007
1.965121193112549e-004	-1.098350e+000	-1.090066e+000	-9.086154e-007
1.975121193112549e-004	-7.908413e-001	-7.815147e-001	-9.803533e-007
1.985121193112549e-004	-4.804090e-001	-4.698787e-001	-1.067371e-006
1.995121193112549e-004	-1.684035e-001	-1.563883e-001	-1.176340e-006
2.000000000000000e-004	-1.593637e-002	-3.141592e-003	-1.242211e-006
