time	V(vd)	V(n001)	I(R1)
0.000000000000000e+000	0.000000e+000	0.000000e+000	0.000000e+000
4.729600031574092e-012	2.160496e-005	1.488275e-001	-1.443841e-005
9.459200063148184e-012	5.941070e-005	2.972176e-001	-2.883100e-005
1.418880009472228e-011	1.134172e-004	4.451705e-001	-4.317777e-005
1.891840012629637e-011	1.836246e-004	5.926860e-001	-5.747872e-005
2.364800015787046e-011	2.700327e-004	7.397641e-001	-7.173384e-005
2.837760018944455e-011	3.726416e-004	8.864050e-001	-8.594315e-005
3.310720022101863e-011	4.914513e-004	1.032609e+000	-1.001066e-004
4.310720022101863e-011	7.953215e-004	1.337755e+000	-1.296738e-004
5.310720022101862e-011	1.172080e-003	1.637623e+000	-1.587218e-004
6.310720022101863e-011	1.620189e-003	1.931027e+000	-1.871361e-004
7.310720022101863e-011	2.137825e-003	2.216810e+000	-2.148044e-004
8.310720022101864e-011	2.722885e-003	2.493845e+000	-2.416176e-004
9.310720022101864e-011	3.372993e-003	2.761038e+000	-2.674700e-004
1.031072002210187e-010	4.085517e-003	3.017334e+000	-2.922593e-004
1.131072002210187e-010	4.857574e-003	3.261722e+000	-3.158880e-004
1.231072002210186e-010	5.686043e-003	3.493237e+000	-3.382626e-004
1.431072002210186e-010	7.498635e-003	3.914051e+000	-3.789020e-004
1.631072002210186e-010	9.494118e-003	4.273137e+000	-4.135366e-004
1.831072002210186e-010	1.164046e-002	4.564833e+000	-4.416203e-004
2.031072002210186e-010	1.390330e-002	4.784539e+000	-4.627102e-004
2.231072002210186e-010	1.624652e-002	4.928791e+000	-4.764739e-004
2.431072002210186e-010	1.863281e-002	4.995312e+000	-4.826942e-004
2.631072002210186e-010	2.102431e-002	4.983054e+000	-4.812731e-004
2.831072002210186e-010	2.338317e-002	4.892210e+000	-4.722330e-004
3.031072002210187e-010	2.567218e-002	4.724214e+000	-4.557165e-004
3.231072002210187e-010	2.785533e-002	4.481713e+000	-4.319841e-004
3.431072002210187e-010	2.989835e-002	4.168533e+000	-4.014099e-004
3.631072002210188e-010	3.176929e-002	3.789613e+000	-3.644762e-004
3.831072002210188e-010	3.343891e-002	3.350929e+000	-3.217654e-004
4.031072002210188e-010	3.488120e-002	2.859399e+000	-2.739511e-004
4.231072002210189e-010	3.607370e-002	2.322774e+000	-2.217872e-004
4.431072002210189e-010	3.699786e-002	1.749517e+000	-1.660964e-004
4.631072002210189e-010	3.763930e-002	1.148670e+000	-1.077570e-004
4.831072002210189e-010	3.798800e-002	5.297071e-001	-4.768897e-005
5.131072002210188e-010	3.795139e-002	-4.113095e-001	4.357817e-005
5.331072002210187e-010	3.755423e-002	-1.032609e+000	1.038004e-004
5.531072002210186e-010	3.686519e-002	-1.637623e+000	1.624148e-004
5.731072002210186e-010	3.589474e-002	-2.216810e+000	2.184969e-004
5.931072002210185e-010	3.465772e-002	-2.761038e+000	2.711623e-004
6.131072002210184e-010	3.317309e-002	-3.261722e+000	3.195803e-004
6.331072002210184e-010	3.146369e-002	-3.710967e+000	3.629873e-004
6.531072002210183e-010	2.955588e-002	-4.101687e+000	4.006987e-004
6.731072002210182e-010	2.747916e-002	-4.427722e+000	4.321197e-004
6.931072002210182e-010	2.526574e-002	-4.683929e+000	4.567547e-004
7.131072002210181e-010	2.295006e-002	-4.866267e+000	4.742152e-004
7.331072002210180e-010	2.056824e-002	-4.971862e+000	4.842257e-004
7.531072002210179e-010	1.815757e-002	-4.999047e+000	4.866284e-004
7.731072002210179e-010	1.575588e-002	-4.947394e+000	4.813853e-004
7.931072002210178e-010	1.340100e-002	-4.817719e+000	4.685792e-004
8.131072002210177e-010	1.113010e-002	-4.612064e+000	4.484120e-004
8.331072002210177e-010	8.979139e-003	-4.333675e+000	4.212018e-004
8.531072002210176e-010	6.982261e-003	-3.986941e+000	3.873776e-004
8.731072002210175e-010	5.171229e-003	-3.577330e+000	3.474730e-004
8.831072002210175e-010	4.344551e-003	-3.350929e+000	3.254337e-004
8.931072002210175e-010	3.574904e-003	-3.111303e+000	3.021173e-004
9.031072002210174e-010	2.865363e-003	-2.859399e+000	2.776158e-004
9.131072002210174e-010	2.218764e-003	-2.596209e+000	2.520259e-004
9.231072002210174e-010	1.637693e-003	-2.322774e+000	2.254485e-004
9.331072002210173e-010	1.124472e-003	-2.040171e+000	1.979886e-004
9.431072002210173e-010	6.811545e-004	-1.749517e+000	1.697546e-004
9.531072002210173e-010	3.095099e-004	-1.451959e+000	1.408578e-004
9.631072002210172e-010	1.102134e-005	-1.148670e+000	1.114124e-004
9.731072002210172e-010	-2.131232e-004	-8.408476e-001	8.153445e-005
9.831072002210171e-010	-3.620352e-004	-5.297071e-001	5.134198e-005
9.931072002210171e-010	-4.351300e-004	-2.164760e-001	2.095411e-005
1.003107200221017e-009	-4.321288e-004	9.760937e-002	-9.509243e-006
1.013107200221017e-009	-3.530602e-004	4.113095e-001	-3.992784e-005
1.023107200221017e-009	-1.982600e-004	7.233865e-001	-7.018165e-005
1.033107200221017e-009	3.163016e-005	1.032609e+000	-1.001513e-004
1.043107200221017e-009	3.356657e-004	1.337755e+000	-1.297184e-004
1.053107200221017e-009	7.126029e-004	1.637623e+000	-1.587664e-004
1.063107200221017e-009	1.160904e-003	1.931027e+000	-1.871807e-004
1.073107200221017e-009	1.678745e-003	2.216810e+000	-2.148490e-004
1.083107200221017e-009	2.264023e-003	2.493845e+000	-2.416622e-004
1.093107200221017e-009	2.914362e-003	2.761038e+000	-2.675145e-004
1.103107200221017e-009	3.627128e-003	3.017334e+000	-2.923039e-004
1.113107200221017e-009	4.399437e-003	3.261722e+000	-3.159325e-004
1.123107200221017e-009	5.228170e-003	3.493237e+000	-3.383071e-004
1.143107200221017e-009	7.041318e-003	3.914051e+000	-3.789464e-004
1.163107200221017e-009	9.037393e-003	4.273137e+000	-4.135809e-004
1.183107200221017e-009	1.118436e-002	4.564833e+000	-4.416646e-004
1.203107200221016e-009	1.344784e-002	4.784539e+000	-4.627545e-004
1.223107200221016e-009	1.579172e-002	4.928791e+000	-4.765180e-004
1.243107200221016e-009	1.817868e-002	4.995312e+000	-4.827383e-004
1.263107200221016e-009	2.057085e-002	4.983054e+000	-4.813171e-004
1.283107200221016e-009	2.293038e-002	4.892210e+000	-4.722770e-004
1.303107200221016e-009	2.522004e-002	4.724214e+000	-4.557604e-004
1.323107200221016e-009	2.740383e-002	4.481713e+000	-4.320279e-004
1.343107200221016e-009	2.944746e-002	4.168533e+000	-4.014537e-004
1.363107200221016e-009	3.131897e-002	3.789613e+000	-3.645199e-004
1.383107200221016e-009	3.298914e-002	3.350929e+000	-3.218091e-004
1.403107200221016e-009	3.443192e-002	2.859399e+000	-2.739947e-004
1.423107200221016e-009	3.562487e-002	2.322774e+000	-2.218308e-004
1.443107200221016e-009	3.654943e-002	1.749517e+000	-1.661399e-004
1.463107200221016e-009	3.719121e-002	1.148670e+000	-1.078005e-004
1.483107200221015e-009	3.754020e-002	5.297071e-001	-4.773245e-005
1.513107200221015e-009	3.750391e-002	-4.113095e-001	4.353472e-005
1.533107200221015e-009	3.710690e-002	-1.032609e+000	1.037569e-004
1.553107200221015e-009	3.641795e-002	-1.637623e+000	1.623713e-004
1.573107200221015e-009	3.544753e-002	-2.216810e+000	2.184535e-004
1.593107200221015e-009	3.421050e-002	-2.761038e+000	2.711188e-004
1.613107200221015e-009	3.272580e-002	-3.261722e+000	3.195368e-004
1.633107200221015e-009	3.101630e-002	-3.710967e+000	3.629439e-004
1.653107200221015e-009	2.910834e-002	-4.101687e+000	4.006552e-004
1.673107200221015e-009	2.703145e-002	-4.427722e+000	4.320762e-004
1.693107200221015e-009	2.481783e-002	-4.683929e+000	4.567112e-004
1.713107200221015e-009	2.250193e-002	-4.866267e+000	4.741717e-004
1.733107200221015e-009	2.011988e-002	-4.971862e+000	4.841822e-004
1.753107200221015e-009	1.770897e-002	-4.999047e+000	4.865848e-004
1.773107200221014e-009	1.530705e-002	-4.947394e+000	4.813418e-004
1.793107200221014e-009	1.295195e-002	-4.817719e+000	4.685356e-004
1.813107200221014e-009	1.068084e-002	-4.612064e+000	4.483684e-004
1.833107200221014e-009	8.529700e-003	-4.333675e+000	4.211581e-004
1.853107200221014e-009	6.532668e-003	-3.986941e+000	3.873340e-004
1.863107200221014e-009	5.601979e-003	-3.789613e+000	3.681045e-004
1.873107200221014e-009	4.721516e-003	-3.577330e+000	3.474294e-004
1.883107200221015e-009	3.894792e-003	-3.350929e+000	3.253901e-004
1.893107200221015e-009	3.125111e-003	-3.111303e+000	3.020737e-004
1.903107200221015e-009	2.415546e-003	-2.859399e+000	2.775721e-004
1.913107200221015e-009	1.768935e-003	-2.596209e+000	2.519822e-004
1.923107200221015e-009	1.187864e-003	-2.322774e+000	2.254048e-004
1.933107200221015e-009	6.746562e-004	-2.040171e+000	1.979449e-004
1.943107200221016e-009	2.313635e-004	-1.749517e+000	1.697109e-004
1.953107200221016e-009	-1.402428e-004	-1.451959e+000	1.408141e-004
1.963107200221016e-009	-4.386797e-004	-1.148670e+000	1.113687e-004
1.973107200221016e-009	-6.627591e-004	-8.408476e-001	8.149080e-005
1.983107200221016e-009	-8.115922e-004	-5.297071e-001	5.129833e-005
1.993107200221016e-009	-8.905147e-004	-2.164760e-001	2.091419e-005
2.000000000000000e-009	-9.096599e-004	6.432491e-015	-8.831650e-008
