time	V(vd)	V(n001)	I(D1)
0.000000000000000e+000	0.000000e+000	0.000000e+000	0.000000e+000
5.851428548047419e-010	1.736902e-005	1.838281e-003	1.767875e-007
1.170285709609484e-009	6.510322e-005	3.676561e-003	3.506269e-007
1.755428564414226e-009	1.432026e-004	5.514840e-003	5.215182e-007
2.340571419218967e-009	2.516672e-004	7.353119e-003	6.894616e-007
2.925714274023709e-009	3.904969e-004	9.191396e-003	8.544569e-007
3.510857128828451e-009	5.596918e-004	1.102967e-002	1.016504e-006
4.095999983633192e-009	7.592519e-004	1.286795e-002	1.175603e-006
8.191999967266384e-009	2.701949e-003	2.573581e-002	2.236308e-006
1.317242735055708e-008	6.445400e-003	4.138193e-002	3.391927e-006
2.084568321726325e-008	1.481453e-002	6.548677e-002	4.919716e-006
3.040080220445015e-008	2.881657e-002	9.550113e-002	6.474375e-006
4.399080151986837e-008	5.398995e-002	1.381836e-001	8.174337e-006
6.115962251290551e-008	9.188435e-002	1.920913e-001	9.728893e-006
8.507021779841745e-008	1.512904e-001	2.671287e-001	1.124575e-005
1.167042192689342e-007	2.310196e-001	3.663086e-001	1.313114e-005
1.615044361022534e-007	3.247292e-001	5.065108e-001	1.763999e-005
2.106703219100208e-007	3.888352e-001	6.599093e-001	2.630396e-005
2.647611682656101e-007	4.236260e-001	8.279406e-001	3.922514e-005
3.382660057360183e-007	4.481390e-001	1.054711e+000	5.883328e-005
4.204077016373630e-007	4.652064e-001	1.305444e+000	8.143875e-005
5.521890633755376e-007	4.830897e-001	1.700159e+000	1.177167e-004
7.521890633755376e-007	5.016631e-001	2.276078e+000	1.714110e-004
9.521890633755376e-007	5.147142e-001	2.816102e+000	2.223786e-004
1.152189063375538e-006	5.239734e-001	3.311715e+000	2.694043e-004
1.352189063375538e-006	5.308024e-001	3.755100e+000	3.116084e-004
1.552189063375538e-006	5.360281e-001	4.139265e+000	3.482473e-004
1.752189063375538e-006	5.399981e-001	4.458150e+000	3.786983e-004
1.952189063375538e-006	5.428950e-001	4.706729e+000	4.024553e-004
2.152189063375537e-006	5.448503e-001	4.881079e+000	4.191257e-004
2.352189063375537e-006	5.459435e-001	4.978452e+000	4.284358e-004
2.552189063375537e-006	5.462349e-001	4.997312e+000	4.303954e-004
2.734974542701233e-006	5.457777e-001	4.945606e+000	4.254390e-004
2.934974542701233e-006	5.444696e-001	4.814424e+000	4.127164e-004
3.134974542701233e-006	5.423023e-001	4.607315e+000	3.928987e-004
3.334974542701233e-006	5.391653e-001	4.327547e+000	3.661485e-004
3.534974542701233e-006	5.349076e-001	3.979530e+000	3.329075e-004
3.734974542701232e-006	5.292856e-001	3.568754e+000	2.937300e-004
3.934974542701232e-006	5.218934e-001	3.101696e+000	2.492825e-004
4.134974542701232e-006	5.120032e-001	2.585723e+000	2.003495e-004
4.334974542701232e-006	4.981325e-001	2.028972e+000	1.478684e-004
4.534974542701231e-006	4.758175e-001	1.440222e+000	9.310829e-005
4.734974542701231e-006	4.129268e-001	8.287595e-001	4.006982e-005
4.934974542701231e-006	2.140115e-001	2.042267e-001	-1.015545e-006
5.058298827771187e-006	-6.339449e-002	-1.831102e-001	-1.159856e-005
5.174049093508074e-006	-4.272822e-001	-5.457022e-001	-1.144169e-005
5.268685268818291e-006	-7.336788e-001	-8.400959e-001	-1.025824e-005
5.364391667704500e-006	-1.034834e+000	-1.134795e+000	-9.489629e-006
5.554859161049000e-006	-1.616776e+000	-1.708045e+000	-8.234437e-006
5.754859161048999e-006	-2.200786e+000	-2.283544e+000	-7.159639e-006
5.954859161048999e-006	-2.747737e+000	-2.823030e+000	-6.227956e-006
6.154859161048999e-006	-3.249602e+000	-3.317995e+000	-5.368272e-006
6.354859161048999e-006	-3.698925e+000	-3.760633e+000	-4.549529e-006
6.554859161048998e-006	-4.088952e+000	-4.143964e+000	-3.752432e-006
6.754859161048998e-006	-4.413764e+000	-4.461942e+000	-2.967655e-006
6.954859161048998e-006	-4.668432e+000	-4.709553e+000	-2.188912e-006
7.154859161048998e-006	-4.849080e+000	-4.882891e+000	-1.413595e-006
7.354859161048998e-006	-4.952995e+000	-4.979223e+000	-6.404646e-007
7.554859161048997e-006	-4.980207e+000	-4.997030e+000	1.312111e-007
7.739321363399672e-006	-4.934280e+000	-4.943579e+000	8.418753e-007
7.939321363399672e-006	-4.808350e+000	-4.810720e+000	1.611292e-006
8.139321363399672e-006	-4.608365e+000	-4.601993e+000	2.380113e-006
8.339321363399671e-006	-4.336087e+000	-4.320691e+000	3.149511e-006
8.539321363399671e-006	-3.995961e+000	-3.971248e+000	3.921830e-006
8.739321363399671e-006	-3.593544e+000	-3.559176e+000	4.702083e-006
8.939321363399671e-006	-3.135403e+000	-3.090974e+000	5.499332e-006
9.139321363399670e-006	-2.629034e+000	-2.574026e+000	6.328320e-006
9.339321363399670e-006	-2.082835e+000	-2.016483e+000	7.215828e-006
9.539321363399670e-006	-1.506087e+000	-1.427140e+000	8.212603e-006
9.739321363399670e-006	-9.091359e-001	-8.152894e-001	9.424385e-006
9.939321363399670e-006	-3.073230e-001	-1.905814e-001	1.140756e-005
1.013932136339967e-005	2.334937e-001	4.371322e-001	1.970969e-005
1.023645070963099e-005	3.894994e-001	7.401022e-001	3.397260e-005
1.034574852876021e-005	4.478497e-001	1.077678e+000	6.104596e-005
1.045724821604099e-005	4.714090e-001	1.416808e+000	9.164544e-005
1.056742976173868e-005	4.855563e-001	1.745107e+000	1.219261e-004
1.076591043734588e-005	5.028647e-001	2.314374e+000	1.750123e-004
1.096591043734588e-005	5.154182e-001	2.851617e+000	2.257415e-004
1.116591043734588e-005	5.244759e-001	3.343887e+000	2.724640e-004
1.136591043734588e-005	5.312029e-001	3.783422e+000	3.143077e-004
1.156591043734588e-005	5.363390e-001	4.163291e+000	3.505406e-004
1.176591043734588e-005	5.402302e-001	4.477502e+000	3.805472e-004
1.196591043734588e-005	5.430579e-001	4.721100e+000	4.038292e-004
1.216591043734588e-005	5.449523e-001	4.890244e+000	4.200019e-004
1.236591043734588e-005	5.459881e-001	4.982265e+000	4.288002e-004
1.256591043734588e-005	5.462158e-001	4.995713e+000	4.301604e-004
1.275731135025990e-005	5.456669e-001	4.934796e+000	4.243224e-004
1.295731135025990e-005	5.442728e-001	4.795010e+000	4.108581e-004
1.315731135025990e-005	5.420023e-001	4.579603e+000	3.902478e-004
1.335731135025990e-005	5.387489e-001	4.291973e+000	3.627488e-004
1.355731135025990e-005	5.343530e-001	3.936655e+000	3.288151e-004
1.375731135025990e-005	5.285575e-001	3.519255e+000	2.890140e-004
1.395731135025990e-005	5.209309e-001	3.046354e+000	2.440244e-004
1.415731135025990e-005	5.106912e-001	2.525410e+000	1.946451e-004
1.435731135025990e-005	4.960771e-001	1.964638e+000	1.418363e-004
1.455731135025990e-005	4.719433e-001	1.372884e+000	8.695106e-005
1.475731135025989e-005	4.131189e-001	7.594777e-001	3.338606e-005
1.491804098373018e-005	2.700727e-001	2.573681e-001	-1.278818e-006
1.501430739250311e-005	6.983717e-002	-4.494739e-002	-1.113878e-005
1.511060499880999e-005	-2.224144e-001	-3.471962e-001	-1.209346e-005
1.518074418804963e-005	-4.505590e-001	-5.666049e-001	-1.123858e-005
1.525380538916173e-005	-6.855362e-001	-7.939779e-001	-1.043932e-005
1.539992779138593e-005	-1.144289e+000	-1.243230e+000	-9.242525e-006
1.559992779138593e-005	-1.751011e+000	-1.840412e+000	-7.974455e-006
1.579992779138593e-005	-2.327570e+000	-2.408570e+000	-6.940983e-006
1.599992779138594e-005	-2.865041e+000	-2.938743e+000	-6.029174e-006
1.619992779138594e-005	-3.355691e+000	-3.422570e+000	-5.181183e-006
1.639992779138594e-005	-3.792217e+000	-3.852422e+000	-4.368377e-006
1.659992779138594e-005	-4.168028e+000	-4.221518e+000	-3.574821e-006
1.679992779138594e-005	-4.477427e+000	-4.524039e+000	-2.791784e-006
1.699992779138594e-005	-4.715713e+000	-4.755212e+000	-2.014056e-006
1.719992779138594e-005	-4.879266e+000	-4.911394e+000	-1.239234e-006
1.739992779138595e-005	-4.965641e+000	-4.990119e+000	-4.664660e-007
1.759992779138595e-005	-4.973614e+000	-4.990148e+000	3.049165e-007
1.779992779138595e-005	-4.903188e+000	-4.911479e+000	1.075126e-006
1.799992779138595e-005	-4.755600e+000	-4.755352e+000	1.844299e-006
1.819992779138595e-005	-4.533301e+000	-4.524232e+000	2.613117e-006
1.839992779138595e-005	-4.239935e+000	-4.221761e+000	3.382845e-006
1.859992779138595e-005	-3.880305e+000	-3.852711e+000	4.156849e-006
1.879992779138596e-005	-3.460272e+000	-3.422901e+000	4.941362e-006
1.899992779138596e-005	-2.986681e+000	-2.939110e+000	5.746278e-006
1.919992779138596e-005	-2.467316e+000	-2.408967e+000	6.589369e-006
1.939992779138596e-005	-1.910837e+000	-1.840834e+000	7.503028e-006
1.959992779138596e-005	-1.326813e+000	-1.243669e+000	8.549707e-006
1.979992779138596e-005	-7.260292e-001	-6.268913e-001	9.865811e-006
1.999992779138596e-005	-1.185588e-001	-2.268501e-004	1.148862e-005
2.000000000000000e-005	-1.183404e-001	-2.449294e-015	1.148936e-005
