Freq.	I(D1)
1.00000000000000e+001	(-1.45101634231018e+002dB,2.58862423978114e-001°)
1.00230523807790e+001	(-1.45101633821833e+002dB,2.59459155346988e-001°)
1.00461579027840e+001	(-1.45101633410759e+002dB,2.60057262265482e-001°)
1.00693166885180e+001	(-1.45101632997787e+002dB,2.60656747906778e-001°)
1.00925288607668e+001	(-1.45101632582909e+002dB,2.61257615448669e-001°)
1.01157945425990e+001	(-1.45101632166117e+002dB,2.61859868075094e-001°)
1.01391138573668e+001	(-1.45101631747400e+002dB,2.62463508979209e-001°)
1.01624869287070e+001	(-1.45101631326751e+002dB,2.63068541360317e-001°)
1.01859138805412e+001	(-1.45101630904161e+002dB,2.63674968426941e-001°)
1.02093948370768e+001	(-1.45101630479620e+002dB,2.64282793392979e-001°)
1.02329299228075e+001	(-1.45101630053119e+002dB,2.64892019480012e-001°)
1.02565192625141e+001	(-1.45101629624649e+002dB,2.65502649918071e-001°)
1.02801629812647e+001	(-1.45101629163657e+002dB,2.66114687009011e-001°)
1.03038612044162e+001	(-1.45101628731223e+002dB,2.66728135866253e-001°)
1.03276140576140e+001	(-1.45101628296793e+002dB,2.67342998806862e-001°)
1.03514216667934e+001	(-1.45101627860358e+002dB,2.67959279091599e-001°)
1.03752841581801e+001	(-1.45101627421908e+002dB,2.68576979986600e-001°)
1.03992016582906e+001	(-1.45101626981435e+002dB,2.69196104766452e-001°)
1.04231742939330e+001	(-1.45101626538929e+002dB,2.69816656714194e-001°)
1.04472021922080e+001	(-1.45101626094380e+002dB,2.70438639117472e-001°)
1.04712854805090e+001	(-1.45101625647780e+002dB,2.71062055274687e-001°)
1.04954242865232e+001	(-1.45101625199118e+002dB,2.71686908490387e-001°)
1.05196187382322e+001	(-1.45101624748385e+002dB,2.72313202076031e-001°)
1.05438689639126e+001	(-1.45101624295571e+002dB,2.72940939352299e-001°)
1.05681750921366e+001	(-1.45101623840668e+002dB,2.73570123647553e-001°)
1.05925372517729e+001	(-1.45101623383665e+002dB,2.74200758294760e-001°)
1.06169555719872e+001	(-1.45101622924552e+002dB,2.74832846639182e-001°)
1.06414301822431e+001	(-1.45101622463321e+002dB,2.75466392031458e-001°)
1.06659612123026e+001	(-1.45101621999960e+002dB,2.76101397828370e-001°)
1.06905487922266e+001	(-1.45101621534461e+002dB,2.76737867396689e-001°)
1.07151930523761e+001	(-1.45101621066813e+002dB,2.77375804109327e-001°)
1.07398941234124e+001	(-1.45101620597007e+002dB,2.78015211349957e-001°)
1.07646521362983e+001	(-1.45101620125032e+002dB,2.78656092506856e-001°)
1.07894672222983e+001	(-1.45101619650879e+002dB,2.79298450978289e-001°)
1.08143395129794e+001	(-1.45101619174537e+002dB,2.79942290167128e-001°)
1.08392691402120e+001	(-1.45101618695997e+002dB,2.80587613487770e-001°)
1.08642562361706e+001	(-1.45101618215247e+002dB,2.81234424361525e-001°)
1.08893009333343e+001	(-1.45101617732279e+002dB,2.81882726215846e-001°)
1.09144033644875e+001	(-1.45101617247082e+002dB,2.82532522488944e-001°)
1.09395636627209e+001	(-1.45101616759645e+002dB,2.83183816623634e-001°)
1.09647819614318e+001	(-1.45101616269958e+002dB,2.83836612071953e-001°)
1.09900583943252e+001	(-1.45101615778011e+002dB,2.84490912296691e-001°)
1.10153930954141e+001	(-1.45101615283793e+002dB,2.85146720764478e-001°)
1.10407861990207e+001	(-1.45101614787294e+002dB,2.85804040951160e-001°)
1.10662378397766e+001	(-1.45101614288504e+002dB,2.86462876342573e-001°)
1.10917481526240e+001	(-1.45101613787411e+002dB,2.87123230429927e-001°)
1.11173172728159e+001	(-1.45101613284005e+002dB,2.87785106713650e-001°)
1.11429453359173e+001	(-1.45101612778276e+002dB,2.88448508703388e-001°)
1.11686324778056e+001	(-1.45101612270213e+002dB,2.89113439914933e-001°)
1.11943788346715e+001	(-1.45101611759804e+002dB,2.89779903874061e-001°)
1.12201845430196e+001	(-1.45101611247039e+002dB,2.90447904111156e-001°)
1.12460497396692e+001	(-1.45101610731908e+002dB,2.91117444169664e-001°)
1.12719745617551e+001	(-1.45101610214399e+002dB,2.91788527596867e-001°)
1.12979591467279e+001	(-1.45101609694502e+002dB,2.92461157950804e-001°)
1.13240036323555e+001	(-1.45101609172205e+002dB,2.93135338797193e-001°)
1.13501081567231e+001	(-1.45101608647497e+002dB,2.93811073710204e-001°)
1.13762728582343e+001	(-1.45101608120367e+002dB,2.94488366269378e-001°)
1.14024978756117e+001	(-1.45101607590804e+002dB,2.95167220068090e-001°)
1.14287833478977e+001	(-1.45101607058797e+002dB,2.95847638702781e-001°)
1.14551294144553e+001	(-1.45101606524334e+002dB,2.96529625780649e-001°)
1.14815362149688e+001	(-1.45101605987404e+002dB,2.97213184916570e-001°)
1.15080038894443e+001	(-1.45101605447996e+002dB,2.97898319734641e-001°)
1.15345325782109e+001	(-1.45101604906099e+002dB,2.98585033865868e-001°)
1.15611224219210e+001	(-1.45101604361700e+002dB,2.99273330949708e-001°)
1.15877735615512e+001	(-1.45101603814788e+002dB,2.99963214637140e-001°)
1.16144861384034e+001	(-1.45101603265352e+002dB,3.00654688582214e-001°)
1.16412602941049e+001	(-1.45101602682834e+002dB,3.01347755392277e-001°)
1.16680961706096e+001	(-1.45101602128315e+002dB,3.02042420856892e-001°)
1.16949939101987e+001	(-1.45101601571236e+002dB,3.02738687601974e-001°)
1.17219536554813e+001	(-1.45101601011585e+002dB,3.03436559318440e-001°)
1.17489755493953e+001	(-1.45101600449351e+002dB,3.04136039705660e-001°)
1.17760597352080e+001	(-1.45101599884523e+002dB,3.04837132469142e-001°)
1.18032063565173e+001	(-1.45101599317087e+002dB,3.05539841327457e-001°)
1.18304155572516e+001	(-1.45101598747032e+002dB,3.06244170004550e-001°)
1.18576874816716e+001	(-1.45101598174346e+002dB,3.06950122234351e-001°)
1.18850222743701e+001	(-1.45101597599017e+002dB,3.07657701758472e-001°)
1.19124200802737e+001	(-1.45101597021032e+002dB,3.08366912327739e-001°)
1.19398810446427e+001	(-1.45101596440379e+002dB,3.09077757701429e-001°)
1.19674053130724e+001	(-1.45101595857046e+002dB,3.09790241647267e-001°)
1.19949930314937e+001	(-1.45101595271021e+002dB,3.10504367942962e-001°)
1.20226443461741e+001	(-1.45101594682291e+002dB,3.11220140371598e-001°)
1.20503594037179e+001	(-1.45101594090843e+002dB,3.11937562729320e-001°)
1.20781383510678e+001	(-1.45101593496666e+002dB,3.12656638817646e-001°)
1.21059813355048e+001	(-1.45101592899746e+002dB,3.13377372449615e-001°)
1.21338885046497e+001	(-1.45101592300071e+002dB,3.14099767444411e-001°)
1.21618600064636e+001	(-1.45101591697628e+002dB,3.14823827631202e-001°)
1.21898959892486e+001	(-1.45101591092404e+002dB,3.15549556848371e-001°)
1.22179966016487e+001	(-1.45101590484387e+002dB,3.16276958941985e-001°)
1.22461619926504e+001	(-1.45101589873563e+002dB,3.17006037769628e-001°)
1.22743923115840e+001	(-1.45101589259921e+002dB,3.17736797193492e-001°)
1.23026877081238e+001	(-1.45101588643445e+002dB,3.18469241088060e-001°)
1.23310483322890e+001	(-1.45101588024125e+002dB,3.19203373335493e-001°)
1.23594743344450e+001	(-1.45101587401945e+002dB,3.19939197827937e-001°)
1.23879658653036e+001	(-1.45101586776894e+002dB,3.20676718465218e-001°)
1.24165230759240e+001	(-1.45101586148958e+002dB,3.21415939156377e-001°)
1.24451461177138e+001	(-1.45101585518124e+002dB,3.22156863819673e-001°)
1.24738351424294e+001	(-1.45101584884378e+002dB,3.22899496382580e-001°)
1.25025903021771e+001	(-1.45101584247707e+002dB,3.23643840781788e-001°)
1.25314117494141e+001	(-1.45101583608097e+002dB,3.24389900962435e-001°)
1.25602996369487e+001	(-1.45101582965535e+002dB,3.25137680878874e-001°)
1.25892541179416e+001	(-1.45101582320007e+002dB,3.25887184494675e-001°)
1.26182753459066e+001	(-1.45101581671499e+002dB,3.26638415782623e-001°)
1.26473634747114e+001	(-1.45101581019999e+002dB,3.27391378725489e-001°)
1.26765186585784e+001	(-1.45101580365491e+002dB,3.28146077313721e-001°)
1.27057410520853e+001	(-1.45101579707962e+002dB,3.28902515547752e-001°)
1.27350308101665e+001	(-1.45101579047398e+002dB,3.29660697436462e-001°)
1.27643880881134e+001	(-1.45101578383786e+002dB,3.30420626999484e-001°)
1.27938130415752e+001	(-1.45101577717110e+002dB,3.31182308264128e-001°)
1.28233058265601e+001	(-1.45101577047357e+002dB,3.31945745267690e-001°)
1.28528665994361e+001	(-1.45101576374513e+002dB,3.32710942057450e-001°)
1.28824955169313e+001	(-1.45101575668018e+002dB,3.33477901515615e-001°)
1.29121927361353e+001	(-1.45101574988948e+002dB,3.34246630050692e-001°)
1.29419584144998e+001	(-1.45101574306744e+002dB,3.35017130568321e-001°)
1.29717927098395e+001	(-1.45101573621392e+002dB,3.35789407151106e-001°)
1.30016957803328e+001	(-1.45101572932876e+002dB,3.36563463892403e-001°)
1.30316677845229e+001	(-1.45101572241182e+002dB,3.37339304895551e-001°)
1.30617088813183e+001	(-1.45101571546295e+002dB,3.38116934273105e-001°)
1.30918192299940e+001	(-1.45101570848201e+002dB,3.38896356146833e-001°)
1.31219989901920e+001	(-1.45101570146885e+002dB,3.39677574646184e-001°)
1.31522483219223e+001	(-1.45101569442332e+002dB,3.40460593915199e-001°)
1.31825673855640e+001	(-1.45101568734527e+002dB,3.41245418100987e-001°)
1.32129563418657e+001	(-1.45101568023455e+002dB,3.42032051366789e-001°)
1.32434153519466e+001	(-1.45101567309101e+002dB,3.42820497878141e-001°)
1.32739445772973e+001	(-1.45101566591449e+002dB,3.43610761817482e-001°)
1.33045441797808e+001	(-1.45101565870486e+002dB,3.44402847371085e-001°)
1.33352143216332e+001	(-1.45101565146194e+002dB,3.45196758739049e-001°)
1.33659551654643e+001	(-1.45101564418560e+002dB,3.45992500128381e-001°)
1.33967668742593e+001	(-1.45101563687567e+002dB,3.46790075757608e-001°)
1.34276496113785e+001	(-1.45101562953200e+002dB,3.47589489852935e-001°)
1.34586035405594e+001	(-1.45101562215444e+002dB,3.48390746652856e-001°)
1.34896288259164e+001	(-1.45101561474282e+002dB,3.49193850403541e-001°)
1.35207256319427e+001	(-1.45101560729699e+002dB,3.49998805361911e-001°)
1.35518941235103e+001	(-1.45101559981680e+002dB,3.50805615794871e-001°)
1.35831344658714e+001	(-1.45101559230208e+002dB,3.51614285977002e-001°)
1.36144468246594e+001	(-1.45101558475268e+002dB,3.52424820197479e-001°)
1.36458313658891e+001	(-1.45101557716843e+002dB,3.53237222750078e-001°)
1.36772882559584e+001	(-1.45101556954917e+002dB,3.54051497941636e-001°)
1.37088176616484e+001	(-1.45101556189475e+002dB,3.54867650087429e-001°)
1.37404197501251e+001	(-1.45101555420500e+002dB,3.55685683514258e-001°)
1.37720946889394e+001	(-1.45101554647975e+002dB,3.56505602556598e-001°)
1.38038426460287e+001	(-1.45101553871885e+002dB,3.57327411561979e-001°)
1.38356637897177e+001	(-1.45101553092213e+002dB,3.58151114884842e-001°)
1.38675582887188e+001	(-1.45101552308942e+002dB,3.58976716891144e-001°)
1.38995263121334e+001	(-1.45101551522056e+002dB,3.59804221957594e-001°)
1.39315680294529e+001	(-1.45101550731537e+002dB,3.60633634468577e-001°)
1.39636836105593e+001	(-1.45101549937371e+002dB,3.61464958821534e-001°)
1.39958732257261e+001	(-1.45101549108993e+002dB,3.62298198149022e-001°)
1.40281370456195e+001	(-1.45101548307478e+002dB,3.63133359411397e-001°)
1.40604752412990e+001	(-1.45101547502263e+002dB,3.63970445764109e-001°)
1.40928879842186e+001	(-1.45101546693332e+002dB,3.64809461645294e-001°)
1.41253754462274e+001	(-1.45101545880668e+002dB,3.65650411499994e-001°)
1.41579377995707e+001	(-1.45101545064252e+002dB,3.66493299786308e-001°)
1.41905752168908e+001	(-1.45101544244068e+002dB,3.67338130971547e-001°)
1.42232878712281e+001	(-1.45101543420099e+002dB,3.68184909533002e-001°)
1.42560759360218e+001	(-1.45101542592326e+002dB,3.69033639960255e-001°)
1.42889395851109e+001	(-1.45101541760733e+002dB,3.69884326750557e-001°)
1.43218789927353e+001	(-1.45101540925301e+002dB,3.70736974411914e-001°)
1.43548943335364e+001	(-1.45101540086013e+002dB,3.71591587465384e-001°)
1.43879857825583e+001	(-1.45101539242852e+002dB,3.72448170438932e-001°)
1.44211535152486e+001	(-1.45101538395799e+002dB,3.73306727873579e-001°)
1.44543977074592e+001	(-1.45101537544836e+002dB,3.74167264318789e-001°)
1.44877185354475e+001	(-1.45101536689946e+002dB,3.75029784336312e-001°)
1.45211161758773e+001	(-1.45101535831109e+002dB,3.75894292496341e-001°)
1.45545908058195e+001	(-1.45101534968309e+002dB,3.76760793383661e-001°)
1.45881426027534e+001	(-1.45101534101526e+002dB,3.77629291587658e-001°)
1.46217717445671e+001	(-1.45101533230743e+002dB,3.78499791712309e-001°)
1.46554784095590e+001	(-1.45101532355940e+002dB,3.79372298372339e-001°)
1.46892627764385e+001	(-1.45101531477100e+002dB,3.80246816190918e-001°)
1.47231250243271e+001	(-1.45101530594204e+002dB,3.81123349803499e-001°)
1.47570653327588e+001	(-1.45101529707232e+002dB,3.82001903855517e-001°)
1.47910838816819e+001	(-1.45101528816166e+002dB,3.82882483004691e-001°)
1.48251808514594e+001	(-1.45101527920988e+002dB,3.83765091916416e-001°)
1.48593564228699e+001	(-1.45101527021678e+002dB,3.84649735268369e-001°)
1.48936107771090e+001	(-1.45101526118217e+002dB,3.85536417750516e-001°)
1.49279440957898e+001	(-1.45101525210586e+002dB,3.86425144060494e-001°)
1.49623565609442e+001	(-1.45101524298765e+002dB,3.87315918909763e-001°)
1.49968483550236e+001	(-1.45101523382736e+002dB,3.88208747020532e-001°)
1.50314196609001e+001	(-1.45101522431934e+002dB,3.89103631754322e-001°)
1.50660706618673e+001	(-1.45101521507430e+002dB,3.90000580589938e-001°)
1.51008015416413e+001	(-1.45101520578659e+002dB,3.90899596912008e-001°)
1.51356124843619e+001	(-1.45101519645600e+002dB,3.91800685488803e-001°)
1.51705036745932e+001	(-1.45101518708235e+002dB,3.92703851094733e-001°)
1.52054752973248e+001	(-1.45101517766544e+002dB,3.93609098516490e-001°)
1.52405275379728e+001	(-1.45101516820506e+002dB,3.94516432549978e-001°)
1.52756605823806e+001	(-1.45101515870102e+002dB,3.95425858007995e-001°)
1.53108746168202e+001	(-1.45101514915311e+002dB,3.96337379707938e-001°)
1.53461698279928e+001	(-1.45101513956113e+002dB,3.97251002482563e-001°)
1.53815464030302e+001	(-1.45101512992488e+002dB,3.98166731170760e-001°)
1.54170045294954e+001	(-1.45101512024415e+002dB,3.99084570626778e-001°)
1.54525443953840e+001	(-1.45101511051874e+002dB,4.00004525715613e-001°)
1.54881661891247e+001	(-1.45101510074844e+002dB,4.00926601314545e-001°)
1.55238700995807e+001	(-1.45101509093305e+002dB,4.01850802308523e-001°)
1.55596563160506e+001	(-1.45101508107235e+002dB,4.02777133596321e-001°)
1.55955250282694e+001	(-1.45101507116614e+002dB,4.03705600085919e-001°)
1.56314764264094e+001	(-1.45101506121421e+002dB,4.04636206699119e-001°)
1.56675107010813e+001	(-1.45101505121634e+002dB,4.05568958368468e-001°)
1.57036280433354e+001	(-1.45101504117233e+002dB,4.06503860037259e-001°)
1.57398286446620e+001	(-1.45101503108196e+002dB,4.07440916659531e-001°)
1.57761126969933e+001	(-1.45101502094502e+002dB,4.08380133200069e-001°)
1.58124803927037e+001	(-1.45101501076129e+002dB,4.09321514640553e-001°)
1.58489319246110e+001	(-1.45101500053055e+002dB,4.10265065965719e-001°)
1.58854674859776e+001	(-1.45101499025260e+002dB,4.11210792178740e-001°)
1.59220872705115e+001	(-1.45101497992720e+002dB,4.12158698291992e-001°)
1.59587914723672e+001	(-1.45101496955415e+002dB,4.13108789327061e-001°)
1.59955802861465e+001	(-1.45101495882777e+002dB,4.14061068863233e-001°)
1.60324539069002e+001	(-1.45101494835875e+002dB,4.15015544857078e-001°)
1.60694125301286e+001	(-1.45101493784140e+002dB,4.15972220915795e-001°)
1.61064563517825e+001	(-1.45101492727551e+002dB,4.16931102107024e-001°)
1.61435855682647e+001	(-1.45101491666085e+002dB,4.17892193513760e-001°)
1.61808003764305e+001	(-1.45101490599720e+002dB,4.18855500228207e-001°)
1.62181009735891e+001	(-1.45101489528434e+002dB,4.19821027356385e-001°)
1.62554875575047e+001	(-1.45101488452202e+002dB,4.20788780015062e-001°)
1.62929603263970e+001	(-1.45101487371003e+002dB,4.21758763333285e-001°)
1.63305194789432e+001	(-1.45101486284814e+002dB,4.22730982452383e-001°)
1.63681652142779e+001	(-1.45101485193612e+002dB,4.23705442522891e-001°)
1.64058977319952e+001	(-1.45101484097373e+002dB,4.24682148710699e-001°)
1.64437172321491e+001	(-1.45101482996074e+002dB,4.25661106189367e-001°)
1.64816239152549e+001	(-1.45101481889692e+002dB,4.26642320149349e-001°)
1.65196179822900e+001	(-1.45101480778204e+002dB,4.27625795791838e-001°)
1.65576996346951e+001	(-1.45101479661586e+002dB,4.28611538324164e-001°)
1.65958690743754e+001	(-1.45101478539813e+002dB,4.29599552975157e-001°)
1.66341265037015e+001	(-1.45101477412864e+002dB,4.30589844978242e-001°)
1.66724721255104e+001	(-1.45101476280712e+002dB,4.31582419582198e-001°)
1.67109061431069e+001	(-1.45101475143336e+002dB,4.32577282045011e-001°)
1.67494287602642e+001	(-1.45101474000709e+002dB,4.33574437643096e-001°)
1.67880401812254e+001	(-1.45101472852809e+002dB,4.34573891658996e-001°)
1.68267406107045e+001	(-1.45101471699611e+002dB,4.35575649387537e-001°)
1.68655302538872e+001	(-1.45101470541090e+002dB,4.36579716138897e-001°)
1.69044093164324e+001	(-1.45101469346677e+002dB,4.37586095696689e-001°)
1.69433780044731e+001	(-1.45101468177437e+002dB,4.38594796465180e-001°)
1.69824365246172e+001	(-1.45101467002801e+002dB,4.39605822257619e-001°)
1.70215850839493e+001	(-1.45101465822743e+002dB,4.40619178430225e-001°)
1.70608238900310e+001	(-1.45101464637238e+002dB,4.41634870353035e-001°)
1.71001531509027e+001	(-1.45101463446261e+002dB,4.42652903408365e-001°)
1.71395730750841e+001	(-1.45101462249788e+002dB,4.43673282993883e-001°)
1.71790838715757e+001	(-1.45101461047792e+002dB,4.44696014511849e-001°)
1.72186857498599e+001	(-1.45101459840249e+002dB,4.45721103386026e-001°)
1.72583789199018e+001	(-1.45101458627132e+002dB,4.46748555049380e-001°)
1.72981635921508e+001	(-1.45101457408416e+002dB,4.47778374944081e-001°)
1.73380399775412e+001	(-1.45101456184074e+002dB,4.48810568529186e-001°)
1.73780082874935e+001	(-1.45101454954082e+002dB,4.49845141274497e-001°)
1.74180687339159e+001	(-1.45101453718413e+002dB,4.50882098659015e-001°)
1.74582215292048e+001	(-1.45101452477041e+002dB,4.51921446183244e-001°)
1.74984668862464e+001	(-1.45101451229939e+002dB,4.52963189350741e-001°)
1.75388050184174e+001	(-1.45101449977081e+002dB,4.54007333685028e-001°)
1.75792361395867e+001	(-1.45101448718440e+002dB,4.55053884718826e-001°)
1.76197604641161e+001	(-1.45101447453991e+002dB,4.56102847995600e-001°)
1.76603782068614e+001	(-1.45101446183705e+002dB,4.57154229075700e-001°)
1.77010895831740e+001	(-1.45101444907556e+002dB,4.58208033531755e-001°)
1.77418948089014e+001	(-1.45101443625517e+002dB,4.59264266945593e-001°)
1.77827941003890e+001	(-1.45101442307017e+002dB,4.60322933298675e-001°)
1.78237876744807e+001	(-1.45101441013116e+002dB,4.61384041431241e-001°)
1.78648757485203e+001	(-1.45101439713243e+002dB,4.62447595353027e-001°)
1.79060585403527e+001	(-1.45101438407371e+002dB,4.63513600701115e-001°)
1.79473362683250e+001	(-1.45101437095472e+002dB,4.64582063121789e-001°)
1.79887091512877e+001	(-1.45101435777517e+002dB,4.65652988281294e-001°)
1.80301774085955e+001	(-1.45101434453480e+002dB,4.66726381848928e-001°)
1.80717412601090e+001	(-1.45101433123331e+002dB,4.67802249517024e-001°)
1.81134009261958e+001	(-1.45101431787043e+002dB,4.68880596984041e-001°)
1.81551566277311e+001	(-1.45101430444588e+002dB,4.69961429968400e-001°)
1.81970085860996e+001	(-1.45101429095936e+002dB,4.71044754190035e-001°)
1.82389570231961e+001	(-1.45101427741060e+002dB,4.72130575396527e-001°)
1.82810021614272e+001	(-1.45101426379931e+002dB,4.73218899340047e-001°)
1.83231442237119e+001	(-1.45101425012519e+002dB,4.74309731785036e-001°)
1.83653834334832e+001	(-1.45101423638796e+002dB,4.75403078512824e-001°)
1.84077200146893e+001	(-1.45101422258732e+002dB,4.76498945320090e-001°)
1.84501541917945e+001	(-1.45101420872299e+002dB,4.77597338009636e-001°)
1.84926861897805e+001	(-1.45101419479467e+002dB,4.78698262402685e-001°)
1.85353162341479e+001	(-1.45101418080206e+002dB,4.79801724335811e-001°)
1.85780445509167e+001	(-1.45101416674487e+002dB,4.80907729653249e-001°)
1.86208713666284e+001	(-1.45101415231736e+002dB,4.82016282521039e-001°)
1.86637969083464e+001	(-1.45101413813011e+002dB,4.83127392201894e-001°)
1.87068214036578e+001	(-1.45101412387738e+002dB,4.84241062890300e-001°)
