v2	V(ds)	I(R1)
Step Information: V1=-3  (Run: 1/7)
0.000000000000000e+000	-1.690252e-009	1.594577e-012
1.000000000000000e-002	5.272464e-003	4.459939e-006
2.000000000000000e-002	1.057738e-002	8.889262e-006
3.000000000000000e-002	1.591536e-002	1.328739e-005
4.000000000000000e-002	2.128703e-002	1.765374e-005
5.000000000000000e-002	2.669304e-002	2.198770e-005
6.000000000000001e-002	3.213405e-002	2.628863e-005
7.000000000000001e-002	3.761077e-002	3.055588e-005
8.000000000000000e-002	4.312389e-002	3.478878e-005
9.000000000000000e-002	4.867417e-002	3.898663e-005
9.999999999999999e-002	5.426236e-002	4.314872e-005
1.100000000000000e-001	5.988926e-002	4.727428e-005
1.200000000000000e-001	6.555568e-002	5.136256e-005
1.300000000000000e-001	7.126248e-002	5.541276e-005
1.400000000000000e-001	7.701052e-002	5.942403e-005
1.500000000000000e-001	8.280073e-002	6.339554e-005
1.600000000000000e-001	8.863404e-002	6.732638e-005
1.700000000000000e-001	9.451144e-002	7.121563e-005
1.800000000000000e-001	1.004339e-001	7.506232e-005
1.900000000000000e-001	1.064026e-001	7.886547e-005
2.000000000000000e-001	1.124185e-001	8.262403e-005
2.100000000000001e-001	1.184829e-001	8.633692e-005
2.200000000000001e-001	1.245968e-001	9.000302e-005
2.300000000000001e-001	1.307616e-001	9.362117e-005
2.400000000000001e-001	1.369785e-001	9.719012e-005
2.500000000000001e-001	1.432489e-001	1.007086e-004
2.600000000000001e-001	1.495741e-001	1.041753e-004
2.700000000000001e-001	1.559558e-001	1.075889e-004
2.800000000000001e-001	1.623953e-001	1.109478e-004
2.900000000000001e-001	1.688944e-001	1.142506e-004
3.000000000000001e-001	1.754546e-001	1.174956e-004
3.100000000000001e-001	1.820778e-001	1.206813e-004
3.200000000000001e-001	1.887659e-001	1.238058e-004
3.300000000000001e-001	1.955207e-001	1.268673e-004
3.400000000000001e-001	2.023443e-001	1.298639e-004
3.500000000000001e-001	2.092388e-001	1.327935e-004
3.600000000000002e-001	2.162067e-001	1.356541e-004
3.700000000000002e-001	2.232501e-001	1.384433e-004
3.800000000000002e-001	2.303717e-001	1.411588e-004
3.900000000000002e-001	2.375740e-001	1.437981e-004
4.000000000000002e-001	2.448601e-001	1.463584e-004
4.100000000000002e-001	2.522327e-001	1.488371e-004
4.200000000000002e-001	2.596952e-001	1.512310e-004
4.300000000000002e-001	2.672508e-001	1.535370e-004
4.400000000000002e-001	2.749032e-001	1.557517e-004
4.500000000000002e-001	2.826562e-001	1.578715e-004
4.600000000000002e-001	2.905138e-001	1.598926e-004
4.700000000000003e-001	2.984805e-001	1.618109e-004
4.800000000000003e-001	3.065609e-001	1.636218e-004
4.900000000000003e-001	3.147601e-001	1.653207e-004
5.000000000000002e-001	3.230834e-001	1.669025e-004
5.100000000000002e-001	3.315367e-001	1.683617e-004
5.200000000000002e-001	3.401262e-001	1.696922e-004
5.300000000000003e-001	3.488589e-001	1.708878e-004
5.400000000000003e-001	3.577421e-001	1.719414e-004
5.500000000000003e-001	3.667839e-001	1.728453e-004
5.600000000000003e-001	3.759932e-001	1.735913e-004
5.700000000000003e-001	3.853796e-001	1.741702e-004
5.800000000000003e-001	3.949538e-001	1.745719e-004
5.900000000000003e-001	4.047275e-001	1.747854e-004
6.000000000000003e-001	4.146911e-001	1.748197e-004
6.100000000000003e-001	4.246874e-001	1.748232e-004
6.200000000000003e-001	4.346837e-001	1.748267e-004
6.300000000000003e-001	4.446800e-001	1.748302e-004
6.400000000000004e-001	4.546763e-001	1.748337e-004
6.500000000000004e-001	4.646726e-001	1.748371e-004
6.600000000000004e-001	4.746689e-001	1.748406e-004
6.700000000000004e-001	4.846652e-001	1.748441e-004
6.800000000000004e-001	4.946615e-001	1.748476e-004
6.900000000000004e-001	5.046578e-001	1.748511e-004
7.000000000000004e-001	5.146542e-001	1.748546e-004
7.100000000000004e-001	5.246505e-001	1.748581e-004
7.200000000000004e-001	5.346467e-001	1.748616e-004
7.300000000000004e-001	5.446430e-001	1.748651e-004
7.400000000000004e-001	5.546393e-001	1.748685e-004
7.500000000000004e-001	5.646356e-001	1.748720e-004
7.600000000000005e-001	5.746319e-001	1.748755e-004
7.700000000000005e-001	5.846282e-001	1.748790e-004
7.800000000000005e-001	5.946245e-001	1.748825e-004
7.900000000000005e-001	6.046209e-001	1.748860e-004
8.000000000000005e-001	6.146172e-001	1.748895e-004
8.100000000000005e-001	6.246135e-001	1.748930e-004
8.200000000000005e-001	6.346098e-001	1.748965e-004
8.300000000000005e-001	6.446061e-001	1.748999e-004
8.400000000000005e-001	6.546023e-001	1.749034e-004
8.500000000000005e-001	6.645986e-001	1.749069e-004
8.600000000000005e-001	6.745949e-001	1.749104e-004
8.700000000000006e-001	6.845912e-001	1.749139e-004
8.800000000000006e-001	6.945875e-001	1.749174e-004
8.900000000000006e-001	7.045839e-001	1.749209e-004
9.000000000000006e-001	7.145802e-001	1.749244e-004
9.100000000000006e-001	7.245765e-001	1.749279e-004
9.200000000000006e-001	7.345728e-001	1.749314e-004
9.300000000000006e-001	7.445691e-001	1.749348e-004
9.400000000000006e-001	7.545654e-001	1.749383e-004
9.500000000000006e-001	7.645617e-001	1.749418e-004
9.600000000000006e-001	7.745579e-001	1.749453e-004
9.700000000000006e-001	7.845542e-001	1.749488e-004
9.800000000000007e-001	7.945506e-001	1.749523e-004
9.900000000000007e-001	8.045469e-001	1.749558e-004
1.000000000000001e+000	8.145432e-001	1.749593e-004
1.010000000000001e+000	8.245395e-001	1.749628e-004
1.020000000000001e+000	8.345358e-001	1.749662e-004
1.030000000000001e+000	8.445321e-001	1.749697e-004
1.040000000000001e+000	8.545284e-001	1.749732e-004
1.050000000000001e+000	8.645247e-001	1.749767e-004
1.060000000000001e+000	8.745210e-001	1.749802e-004
1.070000000000001e+000	8.845173e-001	1.749837e-004
1.080000000000001e+000	8.945136e-001	1.749872e-004
1.090000000000001e+000	9.045099e-001	1.749907e-004
1.100000000000001e+000	9.145062e-001	1.749942e-004
1.110000000000001e+000	9.245025e-001	1.749977e-004
1.120000000000001e+000	9.344988e-001	1.750011e-004
1.130000000000001e+000	9.444951e-001	1.750046e-004
1.140000000000001e+000	9.544914e-001	1.750081e-004
1.150000000000001e+000	9.644877e-001	1.750116e-004
1.160000000000001e+000	9.744840e-001	1.750151e-004
1.170000000000001e+000	9.844803e-001	1.750186e-004
1.180000000000001e+000	9.944766e-001	1.750221e-004
1.190000000000001e+000	1.004473e+000	1.750256e-004
1.200000000000001e+000	1.014469e+000	1.750291e-004
1.210000000000001e+000	1.024466e+000	1.750325e-004
1.220000000000001e+000	1.034462e+000	1.750360e-004
1.230000000000001e+000	1.044458e+000	1.750395e-004
1.240000000000001e+000	1.054454e+000	1.750430e-004
1.250000000000001e+000	1.064451e+000	1.750465e-004
1.260000000000001e+000	1.074447e+000	1.750500e-004
1.270000000000001e+000	1.084443e+000	1.750535e-004
1.280000000000001e+000	1.094440e+000	1.750570e-004
1.290000000000001e+000	1.104436e+000	1.750605e-004
1.300000000000001e+000	1.114432e+000	1.750639e-004
1.310000000000001e+000	1.124429e+000	1.750674e-004
1.320000000000001e+000	1.134425e+000	1.750709e-004
1.330000000000001e+000	1.144421e+000	1.750744e-004
1.340000000000001e+000	1.154417e+000	1.750779e-004
1.350000000000001e+000	1.164414e+000	1.750814e-004
1.360000000000001e+000	1.174410e+000	1.750849e-004
1.370000000000001e+000	1.184406e+000	1.750884e-004
1.380000000000001e+000	1.194403e+000	1.750919e-004
1.390000000000001e+000	1.204399e+000	1.750954e-004
1.400000000000001e+000	1.214395e+000	1.750988e-004
1.410000000000001e+000	1.224392e+000	1.751023e-004
1.420000000000001e+000	1.234388e+000	1.751058e-004
1.430000000000001e+000	1.244384e+000	1.751093e-004
1.440000000000001e+000	1.254380e+000	1.751128e-004
1.450000000000001e+000	1.264377e+000	1.751163e-004
1.460000000000001e+000	1.274373e+000	1.751198e-004
1.470000000000001e+000	1.284369e+000	1.751233e-004
1.480000000000001e+000	1.294366e+000	1.751268e-004
1.490000000000001e+000	1.304362e+000	1.751302e-004
1.500000000000001e+000	1.314358e+000	1.751337e-004
1.510000000000001e+000	1.324355e+000	1.751372e-004
1.520000000000001e+000	1.334351e+000	1.751407e-004
1.530000000000001e+000	1.344347e+000	1.751442e-004
1.540000000000001e+000	1.354343e+000	1.751477e-004
1.550000000000001e+000	1.364340e+000	1.751512e-004
1.560000000000001e+000	1.374336e+000	1.751547e-004
1.570000000000001e+000	1.384332e+000	1.751582e-004
1.580000000000001e+000	1.394329e+000	1.751617e-004
1.590000000000001e+000	1.404325e+000	1.751651e-004
1.600000000000001e+000	1.414321e+000	1.751686e-004
1.610000000000001e+000	1.424318e+000	1.751721e-004
1.620000000000001e+000	1.434314e+000	1.751756e-004
1.630000000000001e+000	1.444310e+000	1.751791e-004
1.640000000000001e+000	1.454306e+000	1.751826e-004
1.650000000000001e+000	1.464303e+000	1.751861e-004
1.660000000000001e+000	1.474299e+000	1.751896e-004
1.670000000000001e+000	1.484295e+000	1.751931e-004
1.680000000000001e+000	1.494292e+000	1.751965e-004
1.690000000000001e+000	1.504288e+000	1.752000e-004
1.700000000000001e+000	1.514284e+000	1.752035e-004
1.710000000000001e+000	1.524281e+000	1.752070e-004
1.720000000000001e+000	1.534277e+000	1.752105e-004
1.730000000000001e+000	1.544273e+000	1.752140e-004
1.740000000000001e+000	1.554269e+000	1.752175e-004
1.750000000000001e+000	1.564266e+000	1.752210e-004
1.760000000000001e+000	1.574262e+000	1.752245e-004
1.770000000000001e+000	1.584258e+000	1.752279e-004
1.780000000000001e+000	1.594255e+000	1.752314e-004
1.790000000000001e+000	1.604251e+000	1.752349e-004
1.800000000000001e+000	1.614247e+000	1.752384e-004
1.810000000000001e+000	1.624244e+000	1.752419e-004
1.820000000000001e+000	1.634240e+000	1.752454e-004
1.830000000000001e+000	1.644236e+000	1.752489e-004
1.840000000000001e+000	1.654233e+000	1.752524e-004
1.850000000000001e+000	1.664229e+000	1.752559e-004
1.860000000000001e+000	1.674225e+000	1.752593e-004
1.870000000000001e+000	1.684221e+000	1.752628e-004
1.880000000000001e+000	1.694218e+000	1.752663e-004
1.890000000000002e+000	1.704214e+000	1.752698e-004
1.900000000000002e+000	1.714210e+000	1.752733e-004
1.910000000000002e+000	1.724207e+000	1.752768e-004
1.920000000000002e+000	1.734203e+000	1.752803e-004
1.930000000000002e+000	1.744199e+000	1.752838e-004
1.940000000000002e+000	1.754195e+000	1.752873e-004
1.950000000000002e+000	1.764192e+000	1.752907e-004
1.960000000000002e+000	1.774188e+000	1.752942e-004
1.970000000000002e+000	1.784184e+000	1.752977e-004
1.980000000000002e+000	1.794181e+000	1.753012e-004
1.990000000000002e+000	1.804177e+000	1.753047e-004
2.000000000000001e+000	1.814173e+000	1.753082e-004
2.010000000000001e+000	1.824170e+000	1.753117e-004
2.020000000000001e+000	1.834166e+000	1.753152e-004
2.030000000000001e+000	1.844162e+000	1.753187e-004
2.040000000000001e+000	1.854159e+000	1.753221e-004
2.050000000000000e+000	1.864155e+000	1.753256e-004
2.060000000000000e+000	1.874151e+000	1.753291e-004
2.070000000000000e+000	1.884147e+000	1.753326e-004
2.080000000000000e+000	1.894144e+000	1.753361e-004
2.089999999999999e+000	1.904140e+000	1.753396e-004
2.099999999999999e+000	1.914136e+000	1.753431e-004
2.109999999999999e+000	1.924133e+000	1.753466e-004
2.119999999999999e+000	1.934129e+000	1.753501e-004
2.129999999999999e+000	1.944125e+000	1.753535e-004
2.139999999999998e+000	1.954122e+000	1.753570e-004
2.149999999999998e+000	1.964118e+000	1.753605e-004
2.159999999999998e+000	1.974114e+000	1.753640e-004
2.169999999999998e+000	1.984110e+000	1.753675e-004
2.179999999999998e+000	1.994107e+000	1.753710e-004
2.189999999999997e+000	2.004103e+000	1.753745e-004
2.199999999999997e+000	2.014099e+000	1.753780e-004
2.209999999999997e+000	2.024096e+000	1.753815e-004
2.219999999999997e+000	2.034092e+000	1.753850e-004
2.229999999999996e+000	2.044088e+000	1.753884e-004
2.239999999999996e+000	2.054085e+000	1.753919e-004
2.249999999999996e+000	2.064081e+000	1.753954e-004
2.259999999999996e+000	2.074077e+000	1.753989e-004
2.269999999999996e+000	2.084074e+000	1.754024e-004
2.279999999999995e+000	2.094070e+000	1.754059e-004
2.289999999999995e+000	2.104066e+000	1.754094e-004
2.299999999999995e+000	2.114062e+000	1.754129e-004
2.309999999999995e+000	2.124059e+000	1.754164e-004
2.319999999999995e+000	2.134055e+000	1.754198e-004
2.329999999999994e+000	2.144051e+000	1.754233e-004
2.339999999999994e+000	2.154047e+000	1.754268e-004
2.349999999999994e+000	2.164044e+000	1.754303e-004
2.359999999999994e+000	2.174040e+000	1.754338e-004
2.369999999999993e+000	2.184036e+000	1.754373e-004
2.379999999999993e+000	2.194033e+000	1.754408e-004
2.389999999999993e+000	2.204029e+000	1.754443e-004
2.399999999999993e+000	2.214025e+000	1.754478e-004
2.409999999999993e+000	2.224022e+000	1.754512e-004
2.419999999999992e+000	2.234018e+000	1.754547e-004
2.429999999999992e+000	2.244014e+000	1.754582e-004
2.439999999999992e+000	2.254011e+000	1.754617e-004
2.449999999999992e+000	2.264007e+000	1.754652e-004
2.459999999999992e+000	2.274003e+000	1.754687e-004
2.469999999999991e+000	2.283999e+000	1.754722e-004
2.479999999999991e+000	2.293996e+000	1.754757e-004
2.489999999999991e+000	2.303992e+000	1.754792e-004
2.499999999999991e+000	2.313988e+000	1.754827e-004
2.509999999999991e+000	2.323985e+000	1.754861e-004
2.519999999999990e+000	2.333981e+000	1.754896e-004
2.529999999999990e+000	2.343977e+000	1.754931e-004
2.539999999999990e+000	2.353974e+000	1.754966e-004
2.549999999999990e+000	2.363970e+000	1.755001e-004
2.559999999999989e+000	2.373966e+000	1.755036e-004
2.569999999999989e+000	2.383962e+000	1.755071e-004
2.579999999999989e+000	2.393959e+000	1.755106e-004
2.589999999999989e+000	2.403955e+000	1.755141e-004
2.599999999999989e+000	2.413951e+000	1.755175e-004
2.609999999999988e+000	2.423948e+000	1.755210e-004
2.619999999999988e+000	2.433944e+000	1.755245e-004
2.629999999999988e+000	2.443940e+000	1.755280e-004
2.639999999999988e+000	2.453937e+000	1.755315e-004
2.649999999999988e+000	2.463933e+000	1.755350e-004
2.659999999999987e+000	2.473929e+000	1.755385e-004
2.669999999999987e+000	2.483926e+000	1.755420e-004
2.679999999999987e+000	2.493922e+000	1.755455e-004
2.689999999999987e+000	2.503918e+000	1.755490e-004
2.699999999999986e+000	2.513914e+000	1.755524e-004
2.709999999999986e+000	2.523911e+000	1.755559e-004
2.719999999999986e+000	2.533907e+000	1.755594e-004
2.729999999999986e+000	2.543903e+000	1.755629e-004
2.739999999999986e+000	2.553900e+000	1.755664e-004
2.749999999999985e+000	2.563896e+000	1.755699e-004
2.759999999999985e+000	2.573892e+000	1.755734e-004
2.769999999999985e+000	2.583889e+000	1.755769e-004
2.779999999999985e+000	2.593885e+000	1.755804e-004
2.789999999999985e+000	2.603881e+000	1.755838e-004
2.799999999999984e+000	2.613878e+000	1.755873e-004
2.809999999999984e+000	2.623874e+000	1.755908e-004
2.819999999999984e+000	2.633870e+000	1.755943e-004
2.829999999999984e+000	2.643866e+000	1.755978e-004
2.839999999999983e+000	2.653863e+000	1.756013e-004
2.849999999999983e+000	2.663859e+000	1.756048e-004
2.859999999999983e+000	2.673855e+000	1.756083e-004
2.869999999999983e+000	2.683851e+000	1.756118e-004
2.879999999999983e+000	2.693848e+000	1.756152e-004
2.889999999999982e+000	2.703844e+000	1.756187e-004
2.899999999999982e+000	2.713840e+000	1.756222e-004
2.909999999999982e+000	2.723837e+000	1.756257e-004
2.919999999999982e+000	2.733833e+000	1.756292e-004
2.929999999999982e+000	2.743829e+000	1.756327e-004
2.939999999999981e+000	2.753826e+000	1.756362e-004
2.949999999999981e+000	2.763822e+000	1.756397e-004
2.959999999999981e+000	2.773818e+000	1.756432e-004
2.969999999999981e+000	2.783815e+000	1.756467e-004
2.979999999999980e+000	2.793811e+000	1.756501e-004
2.989999999999980e+000	2.803807e+000	1.756536e-004
2.999999999999980e+000	2.813803e+000	1.756571e-004
3.009999999999980e+000	2.823800e+000	1.756606e-004
3.019999999999980e+000	2.833796e+000	1.756641e-004
3.029999999999979e+000	2.843792e+000	1.756676e-004
3.039999999999979e+000	2.853789e+000	1.756711e-004
3.049999999999979e+000	2.863785e+000	1.756746e-004
3.059999999999979e+000	2.873781e+000	1.756781e-004
3.069999999999979e+000	2.883778e+000	1.756815e-004
3.079999999999978e+000	2.893774e+000	1.756850e-004
3.089999999999978e+000	2.903770e+000	1.756885e-004
3.099999999999978e+000	2.913766e+000	1.756920e-004
3.109999999999978e+000	2.923763e+000	1.756955e-004
3.119999999999978e+000	2.933759e+000	1.756990e-004
3.129999999999977e+000	2.943755e+000	1.757025e-004
3.139999999999977e+000	2.953752e+000	1.757060e-004
3.149999999999977e+000	2.963748e+000	1.757095e-004
3.159999999999977e+000	2.973744e+000	1.757129e-004
3.169999999999976e+000	2.983741e+000	1.757164e-004
3.179999999999976e+000	2.993737e+000	1.757199e-004
3.189999999999976e+000	3.003733e+000	1.757234e-004
3.199999999999976e+000	3.013730e+000	1.757269e-004
3.209999999999976e+000	3.023726e+000	1.757304e-004
3.219999999999975e+000	3.033722e+000	1.757339e-004
3.229999999999975e+000	3.043718e+000	1.757374e-004
3.239999999999975e+000	3.053715e+000	1.757409e-004
3.249999999999975e+000	3.063711e+000	1.757443e-004
3.259999999999975e+000	3.073707e+000	1.757478e-004
3.269999999999974e+000	3.083704e+000	1.757513e-004
3.279999999999974e+000	3.093700e+000	1.757548e-004
3.289999999999974e+000	3.103696e+000	1.757583e-004
3.299999999999974e+000	3.113693e+000	1.757618e-004
3.309999999999973e+000	3.123689e+000	1.757653e-004
3.319999999999973e+000	3.133685e+000	1.757688e-004
3.329999999999973e+000	3.143682e+000	1.757722e-004
3.339999999999973e+000	3.153678e+000	1.757757e-004
3.349999999999973e+000	3.163674e+000	1.757792e-004
3.359999999999972e+000	3.173670e+000	1.757827e-004
3.369999999999972e+000	3.183667e+000	1.757862e-004
3.379999999999972e+000	3.193663e+000	1.757897e-004
3.389999999999972e+000	3.203659e+000	1.757932e-004
3.399999999999972e+000	3.213655e+000	1.757967e-004
3.409999999999971e+000	3.223652e+000	1.758002e-004
3.419999999999971e+000	3.233648e+000	1.758037e-004
3.429999999999971e+000	3.243644e+000	1.758071e-004
3.439999999999971e+000	3.253641e+000	1.758106e-004
3.449999999999970e+000	3.263637e+000	1.758141e-004
3.459999999999970e+000	3.273633e+000	1.758176e-004
3.469999999999970e+000	3.283630e+000	1.758211e-004
3.479999999999970e+000	3.293626e+000	1.758246e-004
3.489999999999970e+000	3.303622e+000	1.758281e-004
3.499999999999969e+000	3.313618e+000	1.758316e-004
3.509999999999969e+000	3.323615e+000	1.758351e-004
3.519999999999969e+000	3.333611e+000	1.758385e-004
3.529999999999969e+000	3.343607e+000	1.758420e-004
3.539999999999969e+000	3.353604e+000	1.758455e-004
3.549999999999968e+000	3.363600e+000	1.758490e-004
3.559999999999968e+000	3.373596e+000	1.758525e-004
3.569999999999968e+000	3.383593e+000	1.758560e-004
3.579999999999968e+000	3.393589e+000	1.758595e-004
3.589999999999967e+000	3.403585e+000	1.758630e-004
3.599999999999967e+000	3.413582e+000	1.758665e-004
3.609999999999967e+000	3.423578e+000	1.758700e-004
3.619999999999967e+000	3.433574e+000	1.758734e-004
3.629999999999967e+000	3.443570e+000	1.758769e-004
3.639999999999966e+000	3.453567e+000	1.758804e-004
3.649999999999966e+000	3.463563e+000	1.758839e-004
3.659999999999966e+000	3.473559e+000	1.758874e-004
3.669999999999966e+000	3.483556e+000	1.758909e-004
3.679999999999966e+000	3.493552e+000	1.758944e-004
3.689999999999965e+000	3.503548e+000	1.758979e-004
3.699999999999965e+000	3.513545e+000	1.759014e-004
3.709999999999965e+000	3.523541e+000	1.759048e-004
3.719999999999965e+000	3.533537e+000	1.759083e-004
3.729999999999965e+000	3.543534e+000	1.759118e-004
3.739999999999964e+000	3.553530e+000	1.759153e-004
3.749999999999964e+000	3.563526e+000	1.759188e-004
3.759999999999964e+000	3.573522e+000	1.759223e-004
3.769999999999964e+000	3.583519e+000	1.759258e-004
3.779999999999963e+000	3.593515e+000	1.759293e-004
3.789999999999963e+000	3.603511e+000	1.759328e-004
3.799999999999963e+000	3.613508e+000	1.759362e-004
3.809999999999963e+000	3.623504e+000	1.759397e-004
3.819999999999963e+000	3.633500e+000	1.759432e-004
