v2	V(ds)	I(R1)
0.000000000000000e+000	-1.088086e-010	1.026496e-013
1.000000000000000e-002	1.438536e-003	8.076853e-006
2.000000000000000e-002	2.878342e-003	1.615251e-005
3.000000000000000e-002	4.318467e-003	2.422786e-005
4.000000000000000e-002	5.759229e-003	3.230261e-005
5.000000000000000e-002	7.200630e-003	4.037676e-005
6.000000000000001e-002	8.642670e-003	4.845031e-005
7.000000000000001e-002	1.008535e-002	5.652325e-005
8.000000000000000e-002	1.152867e-002	6.459560e-005
9.000000000000000e-002	1.297263e-002	7.266733e-005
9.999999999999999e-002	1.441724e-002	8.073846e-005
1.100000000000000e-001	1.586248e-002	8.880898e-005
1.200000000000000e-001	1.730838e-002	9.687889e-005
1.300000000000000e-001	1.875491e-002	1.049482e-004
1.400000000000000e-001	2.020210e-002	1.130169e-004
1.500000000000000e-001	2.164993e-002	1.210850e-004
1.600000000000000e-001	2.309840e-002	1.291525e-004
1.700000000000000e-001	2.454753e-002	1.372193e-004
1.800000000000000e-001	2.599731e-002	1.452856e-004
1.900000000000000e-001	2.744773e-002	1.533512e-004
2.000000000000000e-001	2.889881e-002	1.614162e-004
2.100000000000001e-001	3.035054e-002	1.694806e-004
2.200000000000001e-001	3.180292e-002	1.775444e-004
2.300000000000001e-001	3.325596e-002	1.856076e-004
2.400000000000001e-001	3.470965e-002	1.936701e-004
2.500000000000001e-001	3.616400e-002	2.017321e-004
2.600000000000001e-001	3.761900e-002	2.097934e-004
2.700000000000001e-001	3.907466e-002	2.178541e-004
2.800000000000001e-001	4.053098e-002	2.259142e-004
2.900000000000001e-001	4.198796e-002	2.339736e-004
3.000000000000001e-001	4.344561e-002	2.420324e-004
3.100000000000001e-001	4.490390e-002	2.500907e-004
3.200000000000001e-001	4.636287e-002	2.581482e-004
3.300000000000001e-001	4.782249e-002	2.662052e-004
3.400000000000001e-001	4.928278e-002	2.742615e-004
3.500000000000001e-001	5.074374e-002	2.823172e-004
3.600000000000002e-001	5.220536e-002	2.903723e-004
3.700000000000002e-001	5.366765e-002	2.984267e-004
3.800000000000002e-001	5.513060e-002	3.064806e-004
3.900000000000002e-001	5.659422e-002	3.145337e-004
4.000000000000002e-001	5.805852e-002	3.225863e-004
4.100000000000002e-001	5.952348e-002	3.306382e-004
4.200000000000002e-001	6.098912e-002	3.386895e-004
4.300000000000002e-001	6.245542e-002	3.467402e-004
4.400000000000002e-001	6.392240e-002	3.547902e-004
4.500000000000002e-001	6.539006e-002	3.628396e-004
4.600000000000002e-001	6.685838e-002	3.708883e-004
4.700000000000003e-001	6.832739e-002	3.789364e-004
4.800000000000003e-001	6.979707e-002	3.869839e-004
4.900000000000003e-001	7.126743e-002	3.950307e-004
5.000000000000002e-001	7.273847e-002	4.030769e-004
5.100000000000002e-001	7.421019e-002	4.111225e-004
5.200000000000002e-001	7.568259e-002	4.191674e-004
5.300000000000003e-001	7.715567e-002	4.272116e-004
5.400000000000003e-001	7.862943e-002	4.352553e-004
5.500000000000003e-001	8.010388e-002	4.432982e-004
5.600000000000003e-001	8.157901e-002	4.513405e-004
5.700000000000003e-001	8.305483e-002	4.593822e-004
5.800000000000003e-001	8.453134e-002	4.674233e-004
5.900000000000003e-001	8.600853e-002	4.754637e-004
6.000000000000003e-001	8.748641e-002	4.835034e-004
6.100000000000003e-001	8.896498e-002	4.915425e-004
6.200000000000003e-001	9.044424e-002	4.995809e-004
6.300000000000003e-001	9.192419e-002	5.076187e-004
6.400000000000004e-001	9.340484e-002	5.156558e-004
6.500000000000004e-001	9.488618e-002	5.236923e-004
6.600000000000004e-001	9.636821e-002	5.317281e-004
6.700000000000004e-001	9.785093e-002	5.397632e-004
6.800000000000004e-001	9.933436e-002	5.477978e-004
6.900000000000004e-001	1.008185e-001	5.558316e-004
7.000000000000004e-001	1.023033e-001	5.638648e-004
7.100000000000004e-001	1.037888e-001	5.718974e-004
7.200000000000004e-001	1.052750e-001	5.799292e-004
7.300000000000004e-001	1.067620e-001	5.879604e-004
7.400000000000004e-001	1.082496e-001	5.959910e-004
7.500000000000004e-001	1.097379e-001	6.040208e-004
7.600000000000005e-001	1.112269e-001	6.120501e-004
7.700000000000005e-001	1.127167e-001	6.200786e-004
7.800000000000005e-001	1.142071e-001	6.281065e-004
7.900000000000005e-001	1.156983e-001	6.361337e-004
8.000000000000005e-001	1.171901e-001	6.441603e-004
8.100000000000005e-001	1.186827e-001	6.521861e-004
8.200000000000005e-001	1.201760e-001	6.602114e-004
8.300000000000005e-001	1.216700e-001	6.682359e-004
8.400000000000005e-001	1.231647e-001	6.762597e-004
8.500000000000005e-001	1.246601e-001	6.842829e-004
8.600000000000005e-001	1.261562e-001	6.923054e-004
8.700000000000006e-001	1.276531e-001	7.003273e-004
8.800000000000006e-001	1.291506e-001	7.083485e-004
8.900000000000006e-001	1.306489e-001	7.163690e-004
9.000000000000006e-001	1.321479e-001	7.243888e-004
9.100000000000006e-001	1.336476e-001	7.324079e-004
9.200000000000006e-001	1.351481e-001	7.404264e-004
9.300000000000006e-001	1.366492e-001	7.484441e-004
9.400000000000006e-001	1.381511e-001	7.564612e-004
9.500000000000006e-001	1.396537e-001	7.644776e-004
9.600000000000006e-001	1.411571e-001	7.724933e-004
9.700000000000006e-001	1.426611e-001	7.805084e-004
9.800000000000007e-001	1.441659e-001	7.885227e-004
9.900000000000007e-001	1.456714e-001	7.965364e-004
1.000000000000001e+000	1.471777e-001	8.045494e-004
1.010000000000001e+000	1.486847e-001	8.125617e-004
1.020000000000001e+000	1.501924e-001	8.205732e-004
1.030000000000001e+000	1.517008e-001	8.285841e-004
1.040000000000001e+000	1.532100e-001	8.365944e-004
1.050000000000001e+000	1.547199e-001	8.446039e-004
1.060000000000001e+000	1.562305e-001	8.526127e-004
1.070000000000001e+000	1.577419e-001	8.606208e-004
1.080000000000001e+000	1.592540e-001	8.686283e-004
1.090000000000001e+000	1.607669e-001	8.766350e-004
1.100000000000001e+000	1.622805e-001	8.846410e-004
1.110000000000001e+000	1.637948e-001	8.926464e-004
1.120000000000001e+000	1.653099e-001	9.006510e-004
1.130000000000001e+000	1.668258e-001	9.086549e-004
1.140000000000001e+000	1.683423e-001	9.166582e-004
1.150000000000001e+000	1.698596e-001	9.246607e-004
1.160000000000001e+000	1.713777e-001	9.326625e-004
1.170000000000001e+000	1.728965e-001	9.406637e-004
1.180000000000001e+000	1.744161e-001	9.486641e-004
1.190000000000001e+000	1.759364e-001	9.566638e-004
1.200000000000001e+000	1.774575e-001	9.646628e-004
1.210000000000001e+000	1.789793e-001	9.726611e-004
1.220000000000001e+000	1.805018e-001	9.806587e-004
1.230000000000001e+000	1.820252e-001	9.886555e-004
1.240000000000001e+000	1.835493e-001	9.966516e-004
1.250000000000001e+000	1.850741e-001	1.004647e-003
1.260000000000001e+000	1.865997e-001	1.012642e-003
1.270000000000001e+000	1.881260e-001	1.020636e-003
1.280000000000001e+000	1.896532e-001	1.028629e-003
1.290000000000001e+000	1.911810e-001	1.036622e-003
1.300000000000001e+000	1.927097e-001	1.044614e-003
1.310000000000001e+000	1.942391e-001	1.052605e-003
1.320000000000001e+000	1.957693e-001	1.060595e-003
1.330000000000001e+000	1.973002e-001	1.068585e-003
1.340000000000001e+000	1.988319e-001	1.076574e-003
1.350000000000001e+000	2.003644e-001	1.084562e-003
1.360000000000001e+000	2.018976e-001	1.092549e-003
1.370000000000001e+000	2.034316e-001	1.100536e-003
1.380000000000001e+000	2.049664e-001	1.108522e-003
1.390000000000001e+000	2.065020e-001	1.116508e-003
1.400000000000001e+000	2.080383e-001	1.124492e-003
1.410000000000001e+000	2.095754e-001	1.132476e-003
1.420000000000001e+000	2.111133e-001	1.140459e-003
1.430000000000001e+000	2.126520e-001	1.148442e-003
1.440000000000001e+000	2.141914e-001	1.156423e-003
1.450000000000001e+000	2.157316e-001	1.164404e-003
1.460000000000001e+000	2.172726e-001	1.172384e-003
1.470000000000001e+000	2.188144e-001	1.180364e-003
1.480000000000001e+000	2.203570e-001	1.188342e-003
1.490000000000001e+000	2.219004e-001	1.196320e-003
1.500000000000001e+000	2.234445e-001	1.204298e-003
1.510000000000001e+000	2.249894e-001	1.212274e-003
1.520000000000001e+000	2.265352e-001	1.220250e-003
1.530000000000001e+000	2.280817e-001	1.228225e-003
1.540000000000001e+000	2.296290e-001	1.236199e-003
1.550000000000001e+000	2.311771e-001	1.244173e-003
1.560000000000001e+000	2.327260e-001	1.252145e-003
1.570000000000001e+000	2.342757e-001	1.260117e-003
1.580000000000001e+000	2.358261e-001	1.268089e-003
1.590000000000001e+000	2.373774e-001	1.276059e-003
1.600000000000001e+000	2.389295e-001	1.284029e-003
1.610000000000001e+000	2.404824e-001	1.291998e-003
1.620000000000001e+000	2.420360e-001	1.299966e-003
1.630000000000001e+000	2.435905e-001	1.307933e-003
1.640000000000001e+000	2.451458e-001	1.315900e-003
1.650000000000001e+000	2.467019e-001	1.323866e-003
1.660000000000001e+000	2.482588e-001	1.331831e-003
1.670000000000001e+000	2.498165e-001	1.339796e-003
1.680000000000001e+000	2.513750e-001	1.347759e-003
1.690000000000001e+000	2.529343e-001	1.355722e-003
1.700000000000001e+000	2.544945e-001	1.363684e-003
1.710000000000001e+000	2.560554e-001	1.371646e-003
1.720000000000001e+000	2.576172e-001	1.379606e-003
1.730000000000001e+000	2.591798e-001	1.387566e-003
1.740000000000001e+000	2.607432e-001	1.395525e-003
1.750000000000001e+000	2.623074e-001	1.403484e-003
1.760000000000001e+000	2.638724e-001	1.411441e-003
1.770000000000001e+000	2.654383e-001	1.419398e-003
1.780000000000001e+000	2.670049e-001	1.427354e-003
1.790000000000001e+000	2.685724e-001	1.435309e-003
1.800000000000001e+000	2.701408e-001	1.443263e-003
1.810000000000001e+000	2.717099e-001	1.451217e-003
1.820000000000001e+000	2.732799e-001	1.459170e-003
1.830000000000001e+000	2.748507e-001	1.467122e-003
1.840000000000001e+000	2.764224e-001	1.475073e-003
1.850000000000001e+000	2.779948e-001	1.483024e-003
1.860000000000001e+000	2.795681e-001	1.490974e-003
1.870000000000001e+000	2.811422e-001	1.498922e-003
1.880000000000001e+000	2.827172e-001	1.506871e-003
1.890000000000002e+000	2.842930e-001	1.514818e-003
1.900000000000002e+000	2.858697e-001	1.522764e-003
1.910000000000002e+000	2.874471e-001	1.530710e-003
1.920000000000002e+000	2.890255e-001	1.538655e-003
1.930000000000002e+000	2.906046e-001	1.546599e-003
1.940000000000002e+000	2.921846e-001	1.554543e-003
1.950000000000002e+000	2.937655e-001	1.562485e-003
1.960000000000002e+000	2.953472e-001	1.570427e-003
1.970000000000002e+000	2.969297e-001	1.578368e-003
1.980000000000002e+000	2.985131e-001	1.586308e-003
1.990000000000002e+000	3.000973e-001	1.594248e-003
2.000000000000001e+000	3.016824e-001	1.602186e-003
2.010000000000001e+000	3.032684e-001	1.610124e-003
2.020000000000001e+000	3.048552e-001	1.618061e-003
2.030000000000001e+000	3.064429e-001	1.625997e-003
2.040000000000001e+000	3.080314e-001	1.633933e-003
2.050000000000000e+000	3.096208e-001	1.641867e-003
2.060000000000000e+000	3.112110e-001	1.649801e-003
2.070000000000000e+000	3.128021e-001	1.657734e-003
2.080000000000000e+000	3.143941e-001	1.665666e-003
2.089999999999999e+000	3.159869e-001	1.673597e-003
2.099999999999999e+000	3.175806e-001	1.681528e-003
2.109999999999999e+000	3.191751e-001	1.689457e-003
2.119999999999999e+000	3.207705e-001	1.697386e-003
2.129999999999999e+000	3.223668e-001	1.705314e-003
2.139999999999998e+000	3.239640e-001	1.713242e-003
2.149999999999998e+000	3.255620e-001	1.721168e-003
2.159999999999998e+000	3.271610e-001	1.729093e-003
2.169999999999998e+000	3.287607e-001	1.737018e-003
2.179999999999998e+000	3.303614e-001	1.744942e-003
2.189999999999997e+000	3.319629e-001	1.752865e-003
2.199999999999997e+000	3.335654e-001	1.760787e-003
2.209999999999997e+000	3.351687e-001	1.768709e-003
2.219999999999997e+000	3.367729e-001	1.776629e-003
2.229999999999996e+000	3.383780e-001	1.784549e-003
2.239999999999996e+000	3.399839e-001	1.792468e-003
2.249999999999996e+000	3.415908e-001	1.800386e-003
2.259999999999996e+000	3.431985e-001	1.808303e-003
2.269999999999996e+000	3.448071e-001	1.816220e-003
2.279999999999995e+000	3.464166e-001	1.824135e-003
2.289999999999995e+000	3.480271e-001	1.832050e-003
2.299999999999995e+000	3.496383e-001	1.839964e-003
2.309999999999995e+000	3.512506e-001	1.847877e-003
2.319999999999995e+000	3.528637e-001	1.855789e-003
2.329999999999994e+000	3.544777e-001	1.863700e-003
2.339999999999994e+000	3.560926e-001	1.871611e-003
2.349999999999994e+000	3.577084e-001	1.879520e-003
2.359999999999994e+000	3.593251e-001	1.887429e-003
2.369999999999993e+000	3.609427e-001	1.895337e-003
2.379999999999993e+000	3.625612e-001	1.903244e-003
2.389999999999993e+000	3.641807e-001	1.911150e-003
2.399999999999993e+000	3.658010e-001	1.919056e-003
2.409999999999993e+000	3.674223e-001	1.926960e-003
2.419999999999992e+000	3.690444e-001	1.934864e-003
2.429999999999992e+000	3.706675e-001	1.942766e-003
2.439999999999992e+000	3.722915e-001	1.950668e-003
2.449999999999992e+000	3.739164e-001	1.958570e-003
2.459999999999992e+000	3.755423e-001	1.966469e-003
2.469999999999991e+000	3.771690e-001	1.974369e-003
2.479999999999991e+000	3.787967e-001	1.982267e-003
2.489999999999991e+000	3.804253e-001	1.990165e-003
2.499999999999991e+000	3.820548e-001	1.998062e-003
2.509999999999991e+000	3.836853e-001	2.005957e-003
2.519999999999990e+000	3.853167e-001	2.013852e-003
2.529999999999990e+000	3.869490e-001	2.021746e-003
2.539999999999990e+000	3.885823e-001	2.029639e-003
2.549999999999990e+000	3.902164e-001	2.037532e-003
2.559999999999989e+000	3.918516e-001	2.045423e-003
2.569999999999989e+000	3.934876e-001	2.053314e-003
2.579999999999989e+000	3.951246e-001	2.061203e-003
2.589999999999989e+000	3.967625e-001	2.069092e-003
2.599999999999989e+000	3.984014e-001	2.076980e-003
2.609999999999988e+000	4.000413e-001	2.084867e-003
2.619999999999988e+000	4.016820e-001	2.092753e-003
2.629999999999988e+000	4.033237e-001	2.100638e-003
2.639999999999988e+000	4.049664e-001	2.108522e-003
2.649999999999988e+000	4.066100e-001	2.116406e-003
2.659999999999987e+000	4.082546e-001	2.124288e-003
2.669999999999987e+000	4.099001e-001	2.132170e-003
2.679999999999987e+000	4.115466e-001	2.140050e-003
2.689999999999987e+000	4.131941e-001	2.147930e-003
2.699999999999986e+000	4.148425e-001	2.155809e-003
2.709999999999986e+000	4.164918e-001	2.163687e-003
2.719999999999986e+000	4.181421e-001	2.171564e-003
2.729999999999986e+000	4.197934e-001	2.179440e-003
2.739999999999986e+000	4.214456e-001	2.187315e-003
2.749999999999985e+000	4.230989e-001	2.195190e-003
2.759999999999985e+000	4.247530e-001	2.203063e-003
2.769999999999985e+000	4.264082e-001	2.210936e-003
2.779999999999985e+000	4.280643e-001	2.218807e-003
2.789999999999985e+000	4.297214e-001	2.226678e-003
2.799999999999984e+000	4.313795e-001	2.234548e-003
2.809999999999984e+000	4.330386e-001	2.242416e-003
2.819999999999984e+000	4.346986e-001	2.250284e-003
2.829999999999984e+000	4.363596e-001	2.258151e-003
2.839999999999983e+000	4.380216e-001	2.266017e-003
2.849999999999983e+000	4.396846e-001	2.273883e-003
2.859999999999983e+000	4.413486e-001	2.281747e-003
2.869999999999983e+000	4.430135e-001	2.289610e-003
2.879999999999983e+000	4.446795e-001	2.297472e-003
2.889999999999982e+000	4.463465e-001	2.305334e-003
2.899999999999982e+000	4.480144e-001	2.313194e-003
2.909999999999982e+000	4.496833e-001	2.321054e-003
2.919999999999982e+000	4.513533e-001	2.328912e-003
2.929999999999982e+000	4.530242e-001	2.336770e-003
2.939999999999981e+000	4.546961e-001	2.344626e-003
2.949999999999981e+000	4.563691e-001	2.352482e-003
2.959999999999981e+000	4.580430e-001	2.360337e-003
2.969999999999981e+000	4.597180e-001	2.368191e-003
2.979999999999980e+000	4.613939e-001	2.376043e-003
2.989999999999980e+000	4.630709e-001	2.383895e-003
2.999999999999980e+000	4.647489e-001	2.391746e-003
3.009999999999980e+000	4.664278e-001	2.399596e-003
3.019999999999980e+000	4.681078e-001	2.407445e-003
3.029999999999979e+000	4.697889e-001	2.415294e-003
3.039999999999979e+000	4.714709e-001	2.423141e-003
3.049999999999979e+000	4.731540e-001	2.430987e-003
3.059999999999979e+000	4.748381e-001	2.438832e-003
3.069999999999979e+000	4.765232e-001	2.446676e-003
3.079999999999978e+000	4.782093e-001	2.454520e-003
3.089999999999978e+000	4.798965e-001	2.462362e-003
3.099999999999978e+000	4.815847e-001	2.470203e-003
3.109999999999978e+000	4.832739e-001	2.478044e-003
3.119999999999978e+000	4.849642e-001	2.485883e-003
3.129999999999977e+000	4.866555e-001	2.493721e-003
3.139999999999977e+000	4.883479e-001	2.501559e-003
3.149999999999977e+000	4.900412e-001	2.509395e-003
3.159999999999977e+000	4.917357e-001	2.517231e-003
3.169999999999976e+000	4.934311e-001	2.525065e-003
3.179999999999976e+000	4.951276e-001	2.532898e-003
3.189999999999976e+000	4.968252e-001	2.540731e-003
3.199999999999976e+000	4.985238e-001	2.548562e-003
3.209999999999976e+000	5.002235e-001	2.556393e-003
3.219999999999975e+000	5.019242e-001	2.564222e-003
3.229999999999975e+000	5.036260e-001	2.572051e-003
3.239999999999975e+000	5.053288e-001	2.579879e-003
3.249999999999975e+000	5.070328e-001	2.587705e-003
3.259999999999975e+000	5.087377e-001	2.595530e-003
3.269999999999974e+000	5.104437e-001	2.603355e-003
3.279999999999974e+000	5.121508e-001	2.611178e-003
3.289999999999974e+000	5.138590e-001	2.619001e-003
3.299999999999974e+000	5.155682e-001	2.626822e-003
3.309999999999973e+000	5.172785e-001	2.634643e-003
3.319999999999973e+000	5.189899e-001	2.642462e-003
3.329999999999973e+000	5.207024e-001	2.650281e-003
3.339999999999973e+000	5.224159e-001	2.658098e-003
3.349999999999973e+000	5.241305e-001	2.665915e-003
3.359999999999972e+000	5.258462e-001	2.673730e-003
3.369999999999972e+000	5.275630e-001	2.681544e-003
3.379999999999972e+000	5.292808e-001	2.689358e-003
3.389999999999972e+000	5.309998e-001	2.697170e-003
3.399999999999972e+000	5.327199e-001	2.704981e-003
3.409999999999971e+000	5.344410e-001	2.712792e-003
3.419999999999971e+000	5.361632e-001	2.720601e-003
3.429999999999971e+000	5.378866e-001	2.728409e-003
3.439999999999971e+000	5.396110e-001	2.736216e-003
3.449999999999970e+000	5.413365e-001	2.744022e-003
3.459999999999970e+000	5.430632e-001	2.751827e-003
3.469999999999970e+000	5.447909e-001	2.759631e-003
3.479999999999970e+000	5.465198e-001	2.767434e-003
3.489999999999970e+000	5.482497e-001	2.775236e-003
3.499999999999969e+000	5.499808e-001	2.783037e-003
3.509999999999969e+000	5.517129e-001	2.790837e-003
3.519999999999969e+000	5.534462e-001	2.798636e-003
3.529999999999969e+000	5.551807e-001	2.806433e-003
3.539999999999969e+000	5.569162e-001	2.814230e-003
3.549999999999968e+000	5.586529e-001	2.822026e-003
3.559999999999968e+000	5.603907e-001	2.829820e-003
3.569999999999968e+000	5.621296e-001	2.837614e-003
3.579999999999968e+000	5.638697e-001	2.845406e-003
3.589999999999967e+000	5.656108e-001	2.853197e-003
3.599999999999967e+000	5.673531e-001	2.860988e-003
3.609999999999967e+000	5.690966e-001	2.868777e-003
3.619999999999967e+000	5.708412e-001	2.876565e-003
3.629999999999967e+000	5.725870e-001	2.884352e-003
3.639999999999966e+000	5.743338e-001	2.892138e-003
3.649999999999966e+000	5.760818e-001	2.899923e-003
3.659999999999966e+000	5.778310e-001	2.907707e-003
3.669999999999966e+000	5.795813e-001	2.915489e-003
3.679999999999966e+000	5.813328e-001	2.923271e-003
3.689999999999965e+000	5.830854e-001	2.931051e-003
3.699999999999965e+000	5.848392e-001	2.938831e-003
3.709999999999965e+000	5.865942e-001	2.946609e-003
3.719999999999965e+000	5.883503e-001	2.954387e-003
3.729999999999965e+000	5.901076e-001	2.962163e-003
3.739999999999964e+000	5.918660e-001	2.969938e-003
3.749999999999964e+000	5.936256e-001	2.977712e-003
3.759999999999964e+000	5.953864e-001	2.985485e-003
3.769999999999964e+000	5.971483e-001	2.993256e-003
3.779999999999963e+000	5.989115e-001	3.001027e-003
3.789999999999963e+000	6.006758e-001	3.008796e-003
3.799999999999963e+000	6.024413e-001	3.016565e-003
3.809999999999963e+000	6.042079e-001	3.024332e-003
3.819999999999963e+000	6.059757e-001	3.032098e-003
3.829999999999962e+000	6.077448e-001	3.039863e-003
