vcc	V(ce)	Ic(Q1)
0.000000000000000e+000	6.307873e-003	-2.754530e-007
5.000000000000000e-003	6.335984e-003	-5.834032e-008
1.000000000000000e-002	6.364132e-003	1.587715e-007
1.500000000000000e-002	6.392289e-003	3.758826e-007
2.000000000000000e-002	6.420464e-003	5.929928e-007
2.500000000000000e-002	6.448658e-003	8.101023e-007
3.000000000000000e-002	6.476871e-003	1.027211e-006
3.500000000000000e-002	6.505102e-003	1.244319e-006
4.000000000000000e-002	6.533352e-003	1.461426e-006
4.500000000000000e-002	6.561621e-003	1.678532e-006
5.000000000000000e-002	6.589908e-003	1.895637e-006
5.499999999999999e-002	6.618214e-003	2.112742e-006
5.999999999999999e-002	6.646539e-003	2.329846e-006
6.499999999999999e-002	6.674882e-003	2.546948e-006
6.999999999999999e-002	6.703245e-003	2.764050e-006
7.500000000000000e-002	6.731627e-003	2.981152e-006
8.000000000000000e-002	6.760027e-003	3.198252e-006
8.500000000000001e-002	6.788446e-003	3.415352e-006
9.000000000000001e-002	6.816884e-003	3.632450e-006
9.500000000000002e-002	6.845341e-003	3.849548e-006
1.000000000000000e-001	6.873817e-003	4.066645e-006
1.050000000000000e-001	6.902312e-003	4.283742e-006
1.100000000000000e-001	6.930827e-003	4.500837e-006
1.150000000000000e-001	6.959361e-003	4.717932e-006
1.200000000000000e-001	6.987913e-003	4.935026e-006
1.250000000000000e-001	7.016485e-003	5.152119e-006
1.300000000000000e-001	7.045076e-003	5.369211e-006
1.350000000000000e-001	7.073686e-003	5.586302e-006
1.400000000000000e-001	7.102316e-003	5.803392e-006
1.450000000000001e-001	7.130965e-003	6.020482e-006
1.500000000000001e-001	7.159633e-003	6.237571e-006
1.550000000000001e-001	7.188321e-003	6.454658e-006
1.600000000000001e-001	7.217028e-003	6.671746e-006
1.650000000000001e-001	7.245754e-003	6.888832e-006
1.700000000000001e-001	7.274501e-003	7.105917e-006
1.750000000000001e-001	7.303266e-003	7.323002e-006
1.800000000000001e-001	7.332051e-003	7.540085e-006
1.850000000000001e-001	7.360856e-003	7.757168e-006
1.900000000000001e-001	7.389680e-003	7.974249e-006
1.950000000000001e-001	7.418524e-003	8.191330e-006
2.000000000000001e-001	7.447388e-003	8.408411e-006
2.050000000000001e-001	7.476272e-003	8.625490e-006
2.100000000000001e-001	7.505175e-003	8.842569e-006
2.150000000000001e-001	7.534098e-003	9.059647e-006
2.200000000000001e-001	7.563041e-003	9.276723e-006
2.250000000000001e-001	7.592003e-003	9.493799e-006
2.300000000000001e-001	7.620986e-003	9.710874e-006
2.350000000000001e-001	7.649988e-003	9.927948e-006
2.400000000000001e-001	7.679011e-003	1.014502e-005
2.450000000000001e-001	7.708054e-003	1.036209e-005
2.500000000000001e-001	7.737116e-003	1.057917e-005
2.550000000000001e-001	7.766199e-003	1.079624e-005
2.600000000000001e-001	7.795302e-003	1.101331e-005
2.650000000000001e-001	7.824425e-003	1.123037e-005
2.700000000000001e-001	7.853568e-003	1.144744e-005
2.750000000000001e-001	7.882731e-003	1.166451e-005
2.800000000000001e-001	7.911915e-003	1.188158e-005
2.850000000000001e-001	7.941118e-003	1.209864e-005
2.900000000000002e-001	7.970342e-003	1.231571e-005
2.950000000000002e-001	7.999587e-003	1.253277e-005
3.000000000000002e-001	8.028852e-003	1.274983e-005
3.050000000000002e-001	8.058137e-003	1.296689e-005
3.100000000000002e-001	8.087443e-003	1.318395e-005
3.150000000000002e-001	8.116770e-003	1.340101e-005
3.200000000000002e-001	8.146117e-003	1.361807e-005
3.250000000000002e-001	8.175484e-003	1.383513e-005
3.300000000000002e-001	8.204873e-003	1.405219e-005
3.350000000000002e-001	8.234281e-003	1.426925e-005
3.400000000000002e-001	8.263711e-003	1.448630e-005
3.450000000000002e-001	8.293160e-003	1.470336e-005
3.500000000000002e-001	8.322632e-003	1.492041e-005
3.550000000000002e-001	8.352123e-003	1.513746e-005
3.600000000000002e-001	8.381636e-003	1.535451e-005
3.650000000000002e-001	8.411169e-003	1.557156e-005
3.700000000000002e-001	8.440724e-003	1.578862e-005
3.750000000000002e-001	8.470299e-003	1.600566e-005
3.800000000000002e-001	8.499895e-003	1.622271e-005
3.850000000000002e-001	8.529512e-003	1.643976e-005
3.900000000000002e-001	8.559151e-003	1.665681e-005
3.950000000000002e-001	8.588810e-003	1.687385e-005
4.000000000000002e-001	8.618491e-003	1.709090e-005
4.050000000000003e-001	8.648193e-003	1.730794e-005
4.100000000000003e-001	8.677916e-003	1.752498e-005
4.150000000000003e-001	8.707660e-003	1.774202e-005
4.200000000000003e-001	8.737425e-003	1.795906e-005
4.250000000000003e-001	8.767213e-003	1.817610e-005
4.300000000000003e-001	8.797021e-003	1.839314e-005
4.350000000000003e-001	8.826850e-003	1.861018e-005
4.400000000000003e-001	8.856701e-003	1.882722e-005
4.450000000000003e-001	8.886574e-003	1.904426e-005
4.500000000000003e-001	8.916467e-003	1.926129e-005
4.550000000000003e-001	8.946383e-003	1.947832e-005
4.600000000000003e-001	8.976321e-003	1.969536e-005
4.650000000000003e-001	9.006280e-003	1.991239e-005
4.700000000000003e-001	9.036260e-003	2.012942e-005
4.750000000000003e-001	9.066262e-003	2.034645e-005
4.800000000000003e-001	9.096286e-003	2.056348e-005
4.850000000000003e-001	9.126332e-003	2.078051e-005
4.900000000000003e-001	9.156399e-003	2.099754e-005
4.950000000000003e-001	9.186490e-003	2.121456e-005
5.000000000000003e-001	9.216601e-003	2.143159e-005
5.050000000000003e-001	9.246734e-003	2.164862e-005
5.100000000000003e-001	9.276889e-003	2.186564e-005
5.150000000000004e-001	9.307067e-003	2.208266e-005
5.200000000000004e-001	9.337266e-003	2.229968e-005
5.250000000000004e-001	9.367487e-003	2.251670e-005
5.300000000000004e-001	9.397731e-003	2.273372e-005
5.350000000000004e-001	9.427997e-003	2.295074e-005
5.400000000000004e-001	9.458286e-003	2.316776e-005
5.450000000000004e-001	9.488597e-003	2.338478e-005
5.500000000000004e-001	9.518929e-003	2.360179e-005
5.550000000000004e-001	9.549284e-003	2.381881e-005
5.600000000000004e-001	9.579661e-003	2.403582e-005
5.650000000000004e-001	9.610062e-003	2.425283e-005
5.700000000000004e-001	9.640484e-003	2.446985e-005
5.750000000000004e-001	9.670929e-003	2.468686e-005
5.800000000000004e-001	9.701396e-003	2.490387e-005
5.850000000000004e-001	9.731887e-003	2.512088e-005
5.900000000000004e-001	9.762400e-003	2.533789e-005
5.950000000000004e-001	9.792935e-003	2.555489e-005
6.000000000000004e-001	9.823494e-003	2.577190e-005
6.050000000000004e-001	9.854075e-003	2.598891e-005
6.100000000000004e-001	9.884679e-003	2.620591e-005
6.150000000000004e-001	9.915305e-003	2.642291e-005
6.200000000000004e-001	9.945955e-003	2.663991e-005
6.250000000000004e-001	9.976627e-003	2.685692e-005
6.300000000000005e-001	1.000732e-002	2.707392e-005
6.350000000000005e-001	1.003804e-002	2.729091e-005
6.400000000000005e-001	1.006878e-002	2.750791e-005
6.450000000000005e-001	1.009955e-002	2.772491e-005
6.500000000000005e-001	1.013034e-002	2.794191e-005
6.550000000000005e-001	1.016115e-002	2.815890e-005
6.600000000000005e-001	1.019198e-002	2.837590e-005
6.650000000000005e-001	1.022284e-002	2.859289e-005
6.700000000000005e-001	1.025372e-002	2.880988e-005
6.750000000000005e-001	1.028462e-002	2.902687e-005
6.800000000000005e-001	1.031555e-002	2.924386e-005
6.850000000000005e-001	1.034650e-002	2.946085e-005
6.900000000000005e-001	1.037748e-002	2.967784e-005
6.950000000000005e-001	1.040848e-002	2.989483e-005
7.000000000000005e-001	1.043950e-002	3.011181e-005
7.050000000000005e-001	1.047055e-002	3.032880e-005
7.100000000000005e-001	1.050162e-002	3.054578e-005
7.150000000000005e-001	1.053271e-002	3.076276e-005
7.200000000000005e-001	1.056383e-002	3.097975e-005
7.250000000000005e-001	1.059497e-002	3.119673e-005
7.300000000000005e-001	1.062613e-002	3.141371e-005
7.350000000000005e-001	1.065732e-002	3.163068e-005
7.400000000000006e-001	1.068853e-002	3.184766e-005
7.450000000000006e-001	1.071977e-002	3.206464e-005
7.500000000000006e-001	1.075103e-002	3.228162e-005
7.550000000000006e-001	1.078231e-002	3.249859e-005
7.600000000000006e-001	1.081362e-002	3.271556e-005
7.650000000000006e-001	1.084496e-002	3.293253e-005
7.700000000000006e-001	1.087631e-002	3.314951e-005
7.750000000000006e-001	1.090769e-002	3.336648e-005
7.800000000000006e-001	1.093910e-002	3.358344e-005
7.850000000000006e-001	1.097053e-002	3.380041e-005
7.900000000000006e-001	1.100199e-002	3.401738e-005
7.950000000000006e-001	1.103347e-002	3.423435e-005
8.000000000000006e-001	1.106497e-002	3.445131e-005
8.050000000000006e-001	1.109650e-002	3.466828e-005
8.100000000000006e-001	1.112805e-002	3.488524e-005
8.150000000000006e-001	1.115963e-002	3.510220e-005
8.200000000000006e-001	1.119123e-002	3.531916e-005
8.250000000000006e-001	1.122286e-002	3.553612e-005
8.300000000000006e-001	1.125451e-002	3.575308e-005
8.350000000000006e-001	1.128619e-002	3.597004e-005
8.400000000000006e-001	1.131789e-002	3.618699e-005
8.450000000000006e-001	1.134961e-002	3.640395e-005
8.500000000000006e-001	1.138137e-002	3.662090e-005
8.550000000000007e-001	1.141314e-002	3.683785e-005
8.600000000000007e-001	1.144494e-002	3.705480e-005
8.650000000000007e-001	1.147677e-002	3.727175e-005
8.700000000000007e-001	1.150862e-002	3.748871e-005
8.750000000000007e-001	1.154050e-002	3.770566e-005
8.800000000000007e-001	1.157240e-002	3.792260e-005
8.850000000000007e-001	1.160433e-002	3.813955e-005
8.900000000000007e-001	1.163629e-002	3.835649e-005
8.950000000000007e-001	1.166826e-002	3.857344e-005
9.000000000000007e-001	1.170027e-002	3.879038e-005
9.050000000000007e-001	1.173230e-002	3.900732e-005
9.100000000000007e-001	1.176436e-002	3.922427e-005
9.150000000000007e-001	1.179644e-002	3.944121e-005
9.200000000000007e-001	1.182854e-002	3.965814e-005
9.250000000000007e-001	1.186068e-002	3.987508e-005
9.300000000000007e-001	1.189283e-002	4.009201e-005
9.350000000000007e-001	1.192502e-002	4.030895e-005
9.400000000000007e-001	1.195723e-002	4.052588e-005
9.450000000000007e-001	1.198946e-002	4.074282e-005
9.500000000000007e-001	1.202173e-002	4.095975e-005
9.550000000000007e-001	1.205402e-002	4.117668e-005
9.600000000000007e-001	1.208633e-002	4.139361e-005
9.650000000000008e-001	1.211867e-002	4.161054e-005
9.700000000000008e-001	1.215104e-002	4.182746e-005
9.750000000000008e-001	1.218343e-002	4.204439e-005
9.800000000000008e-001	1.221585e-002	4.226132e-005
9.850000000000008e-001	1.224830e-002	4.247824e-005
9.900000000000008e-001	1.228077e-002	4.269516e-005
9.950000000000008e-001	1.231327e-002	4.291208e-005
1.000000000000001e+000	1.234579e-002	4.312901e-005
1.005000000000001e+000	1.237834e-002	4.334592e-005
1.010000000000001e+000	1.241092e-002	4.356284e-005
1.015000000000000e+000	1.244353e-002	4.377976e-005
1.020000000000000e+000	1.247616e-002	4.399668e-005
1.025000000000000e+000	1.250882e-002	4.421359e-005
1.030000000000000e+000	1.254150e-002	4.443050e-005
1.035000000000000e+000	1.257422e-002	4.464742e-005
1.040000000000000e+000	1.260696e-002	4.486433e-005
1.045000000000000e+000	1.263972e-002	4.508123e-005
1.050000000000000e+000	1.267252e-002	4.529814e-005
1.055000000000000e+000	1.270534e-002	4.551505e-005
1.059999999999999e+000	1.273818e-002	4.573196e-005
1.064999999999999e+000	1.277106e-002	4.594886e-005
1.069999999999999e+000	1.280396e-002	4.616577e-005
1.074999999999999e+000	1.283689e-002	4.638267e-005
1.079999999999999e+000	1.286985e-002	4.659957e-005
1.084999999999999e+000	1.290283e-002	4.681647e-005
1.089999999999999e+000	1.293585e-002	4.703337e-005
1.094999999999999e+000	1.296888e-002	4.725027e-005
1.099999999999999e+000	1.300195e-002	4.746717e-005
1.104999999999998e+000	1.303505e-002	4.768406e-005
1.109999999999998e+000	1.306817e-002	4.790095e-005
1.114999999999998e+000	1.310132e-002	4.811785e-005
1.119999999999998e+000	1.313450e-002	4.833474e-005
1.124999999999998e+000	1.316771e-002	4.855163e-005
1.129999999999998e+000	1.320094e-002	4.876852e-005
1.134999999999998e+000	1.323420e-002	4.898541e-005
1.139999999999998e+000	1.326749e-002	4.920229e-005
1.144999999999998e+000	1.330081e-002	4.941918e-005
1.149999999999998e+000	1.333416e-002	4.963606e-005
1.154999999999997e+000	1.336753e-002	4.985294e-005
1.159999999999997e+000	1.340094e-002	5.006983e-005
1.164999999999997e+000	1.343437e-002	5.028671e-005
1.169999999999997e+000	1.346783e-002	5.050359e-005
1.174999999999997e+000	1.350132e-002	5.072047e-005
1.179999999999997e+000	1.353483e-002	5.093734e-005
1.184999999999997e+000	1.356838e-002	5.115422e-005
1.189999999999997e+000	1.360195e-002	5.137109e-005
1.194999999999997e+000	1.363556e-002	5.158797e-005
1.199999999999996e+000	1.366919e-002	5.180484e-005
1.204999999999996e+000	1.370285e-002	5.202171e-005
1.209999999999996e+000	1.373654e-002	5.223858e-005
1.214999999999996e+000	1.377026e-002	5.245545e-005
1.219999999999996e+000	1.380401e-002	5.267231e-005
1.224999999999996e+000	1.383778e-002	5.288918e-005
1.229999999999996e+000	1.387159e-002	5.310604e-005
1.234999999999996e+000	1.390543e-002	5.332291e-005
1.239999999999996e+000	1.393929e-002	5.353977e-005
1.244999999999995e+000	1.397318e-002	5.375663e-005
1.249999999999995e+000	1.400711e-002	5.397349e-005
1.254999999999995e+000	1.404106e-002	5.419035e-005
1.259999999999995e+000	1.407504e-002	5.440720e-005
1.264999999999995e+000	1.410905e-002	5.462406e-005
1.269999999999995e+000	1.414310e-002	5.484091e-005
1.274999999999995e+000	1.417717e-002	5.505776e-005
1.279999999999995e+000	1.421127e-002	5.527462e-005
1.284999999999995e+000	1.424540e-002	5.549147e-005
1.289999999999995e+000	1.427956e-002	5.570831e-005
1.294999999999994e+000	1.431375e-002	5.592516e-005
1.299999999999994e+000	1.434797e-002	5.614201e-005
1.304999999999994e+000	1.438222e-002	5.635885e-005
1.309999999999994e+000	1.441650e-002	5.657570e-005
1.314999999999994e+000	1.445082e-002	5.679254e-005
1.319999999999994e+000	1.448516e-002	5.700938e-005
1.324999999999994e+000	1.451953e-002	5.722622e-005
1.329999999999994e+000	1.455393e-002	5.744306e-005
1.334999999999994e+000	1.458837e-002	5.765990e-005
1.339999999999993e+000	1.462283e-002	5.787673e-005
1.344999999999993e+000	1.465732e-002	5.809357e-005
1.349999999999993e+000	1.469185e-002	5.831040e-005
1.354999999999993e+000	1.472640e-002	5.852723e-005
1.359999999999993e+000	1.476099e-002	5.874406e-005
1.364999999999993e+000	1.479561e-002	5.896089e-005
1.369999999999993e+000	1.483025e-002	5.917772e-005
1.374999999999993e+000	1.486493e-002	5.939454e-005
1.379999999999993e+000	1.489965e-002	5.961137e-005
1.384999999999993e+000	1.493439e-002	5.982819e-005
1.389999999999992e+000	1.496916e-002	6.004501e-005
1.394999999999992e+000	1.500396e-002	6.026183e-005
1.399999999999992e+000	1.503880e-002	6.047865e-005
1.404999999999992e+000	1.507367e-002	6.069547e-005
1.409999999999992e+000	1.510856e-002	6.091229e-005
1.414999999999992e+000	1.514349e-002	6.112910e-005
1.419999999999992e+000	1.517846e-002	6.134592e-005
1.424999999999992e+000	1.521345e-002	6.156273e-005
1.429999999999992e+000	1.524847e-002	6.177954e-005
1.434999999999991e+000	1.528353e-002	6.199635e-005
1.439999999999991e+000	1.531862e-002	6.221316e-005
1.444999999999991e+000	1.535374e-002	6.242996e-005
1.449999999999991e+000	1.538889e-002	6.264677e-005
1.454999999999991e+000	1.542408e-002	6.286358e-005
1.459999999999991e+000	1.545929e-002	6.308038e-005
1.464999999999991e+000	1.549454e-002	6.329718e-005
1.469999999999991e+000	1.552983e-002	6.351398e-005
1.474999999999991e+000	1.556514e-002	6.373078e-005
1.479999999999990e+000	1.560049e-002	6.394758e-005
1.484999999999990e+000	1.563586e-002	6.416437e-005
1.489999999999990e+000	1.567128e-002	6.438117e-005
1.494999999999990e+000	1.570672e-002	6.459796e-005
1.499999999999990e+000	1.574220e-002	6.481475e-005
1.504999999999990e+000	1.577771e-002	6.503154e-005
1.509999999999990e+000	1.581325e-002	6.524833e-005
1.514999999999990e+000	1.584883e-002	6.546512e-005
1.519999999999990e+000	1.588444e-002	6.568190e-005
1.524999999999990e+000	1.592008e-002	6.589869e-005
1.529999999999989e+000	1.595575e-002	6.611547e-005
1.534999999999989e+000	1.599146e-002	6.633225e-005
1.539999999999989e+000	1.602720e-002	6.654903e-005
1.544999999999989e+000	1.606298e-002	6.676581e-005
1.549999999999989e+000	1.609879e-002	6.698258e-005
1.554999999999989e+000	1.613463e-002	6.719936e-005
1.559999999999989e+000	1.617051e-002	6.741613e-005
1.564999999999989e+000	1.620642e-002	6.763291e-005
1.569999999999989e+000	1.624236e-002	6.784968e-005
1.574999999999988e+000	1.627834e-002	6.806645e-005
1.579999999999988e+000	1.631435e-002	6.828322e-005
1.584999999999988e+000	1.635040e-002	6.849998e-005
1.589999999999988e+000	1.638648e-002	6.871675e-005
1.594999999999988e+000	1.642259e-002	6.893351e-005
1.599999999999988e+000	1.645874e-002	6.915027e-005
1.604999999999988e+000	1.649492e-002	6.936704e-005
1.609999999999988e+000	1.653114e-002	6.958380e-005
1.614999999999988e+000	1.656739e-002	6.980055e-005
1.619999999999988e+000	1.660368e-002	7.001730e-005
1.624999999999987e+000	1.664000e-002	7.023406e-005
1.629999999999987e+000	1.667635e-002	7.045081e-005
1.634999999999987e+000	1.671274e-002	7.066756e-005
1.639999999999987e+000	1.674917e-002	7.088431e-005
1.644999999999987e+000	1.678563e-002	7.110107e-005
1.649999999999987e+000	1.682212e-002	7.131781e-005
1.654999999999987e+000	1.685866e-002	7.153456e-005
1.659999999999987e+000	1.689522e-002	7.175130e-005
1.664999999999987e+000	1.693182e-002	7.196804e-005
1.669999999999986e+000	1.696846e-002	7.218478e-005
1.674999999999986e+000	1.700513e-002	7.240153e-005
1.679999999999986e+000	1.704184e-002	7.261826e-005
1.684999999999986e+000	1.707858e-002	7.283500e-005
1.689999999999986e+000	1.711536e-002	7.305173e-005
1.694999999999986e+000	1.715218e-002	7.326846e-005
1.699999999999986e+000	1.718903e-002	7.348519e-005
1.704999999999986e+000	1.722591e-002	7.370192e-005
1.709999999999986e+000	1.726284e-002	7.391865e-005
1.714999999999985e+000	1.729979e-002	7.413538e-005
1.719999999999985e+000	1.733679e-002	7.435211e-005
1.724999999999985e+000	1.737382e-002	7.456883e-005
1.729999999999985e+000	1.741089e-002	7.478555e-005
1.734999999999985e+000	1.744799e-002	7.500227e-005
1.739999999999985e+000	1.748513e-002	7.521899e-005
1.744999999999985e+000	1.752231e-002	7.543571e-005
1.749999999999985e+000	1.755952e-002	7.565242e-005
1.754999999999985e+000	1.759678e-002	7.586914e-005
1.759999999999985e+000	1.763406e-002	7.608585e-005
1.764999999999984e+000	1.767139e-002	7.630256e-005
1.769999999999984e+000	1.770875e-002	7.651927e-005
1.774999999999984e+000	1.774615e-002	7.673597e-005
1.779999999999984e+000	1.778359e-002	7.695268e-005
1.784999999999984e+000	1.782106e-002	7.716939e-005
1.789999999999984e+000	1.785857e-002	7.738609e-005
1.794999999999984e+000	1.789612e-002	7.760279e-005
1.799999999999984e+000	1.793371e-002	7.781949e-005
1.804999999999984e+000	1.797133e-002	7.803619e-005
1.809999999999983e+000	1.800899e-002	7.825288e-005
1.814999999999983e+000	1.804669e-002	7.846958e-005
1.819999999999983e+000	1.808443e-002	7.868627e-005
1.824999999999983e+000	1.812221e-002	7.890296e-005
1.829999999999983e+000	1.816002e-002	7.911965e-005
1.834999999999983e+000	1.819787e-002	7.933634e-005
1.839999999999983e+000	1.823576e-002	7.955302e-005
1.844999999999983e+000	1.827369e-002	7.976971e-005
1.849999999999983e+000	1.831166e-002	7.998639e-005
1.854999999999982e+000	1.834966e-002	8.020307e-005
1.859999999999982e+000	1.838771e-002	8.041975e-005
1.864999999999982e+000	1.842579e-002	8.063643e-005
1.869999999999982e+000	1.846392e-002	8.085310e-005
1.874999999999982e+000	1.850208e-002	8.106977e-005
1.879999999999982e+000	1.854028e-002	8.128645e-005
1.884999999999982e+000	1.857852e-002	8.150312e-005
1.889999999999982e+000	1.861680e-002	8.171979e-005
1.894999999999982e+000	1.865512e-002	8.193646e-005
1.899999999999982e+000	1.869347e-002	8.215312e-005
1.904999999999981e+000	1.873187e-002	8.236978e-005
1.909999999999981e+000	1.877031e-002	8.258645e-005
1.914999999999981e+000	1.880879e-002	8.280311e-005
1.919999999999981e+000	1.884730e-002	8.301977e-005
1.924999999999981e+000	1.888586e-002	8.323642e-005
1.929999999999981e+000	1.892446e-002	8.345308e-005
1.934999999999981e+000	1.896309e-002	8.366974e-005
1.939999999999981e+000	1.900177e-002	8.388639e-005
1.944999999999981e+000	1.904049e-002	8.410303e-005
1.949999999999980e+000	1.907925e-002	8.431968e-005
