vin	V(be)	Ib(Q1)	Ic(Q1)	Ic(Q1)/Ib(Q1)
0.000000000000000e+000	1.114460e-009	-5.065728e-012	5.091875e-012	-1.005162e+000
5.000000000000000e-003	5.000001e-003	-5.055237e-012	5.092920e-012	-1.007454e+000
1.000000000000000e-002	1.000000e-002	-5.044678e-012	5.093964e-012	-1.009770e+000
1.500000000000000e-002	1.500000e-002	-5.034043e-012	5.097099e-012	-1.012526e+000
2.000000000000000e-002	2.000000e-002	-5.023326e-012	5.101279e-012	-1.015518e+000
2.500000000000000e-002	2.500000e-002	-5.012504e-012	5.108593e-012	-1.019170e+000
3.000000000000000e-002	3.000000e-002	-5.001569e-012	5.116952e-012	-1.023070e+000
3.500000000000000e-002	3.500000e-002	-4.990508e-012	5.129491e-012	-1.027850e+000
4.000000000000000e-002	4.000000e-002	-4.979309e-012	5.145166e-012	-1.033309e+000
4.500000000000000e-002	4.500000e-002	-4.967936e-012	5.165019e-012	-1.039671e+000
5.000000000000000e-002	5.000000e-002	-4.956376e-012	5.191142e-012	-1.047367e+000
5.499999999999999e-002	5.500000e-002	-4.944593e-012	5.223534e-012	-1.056413e+000
5.999999999999999e-002	6.000000e-002	-4.932568e-012	5.263241e-012	-1.067039e+000
6.499999999999999e-002	6.500000e-002	-4.920273e-012	5.311307e-012	-1.079474e+000
6.999999999999999e-002	7.000000e-002	-4.907616e-012	5.372957e-012	-1.094820e+000
7.500000000000000e-002	7.500000e-002	-4.894640e-012	5.447146e-012	-1.112880e+000
8.000000000000000e-002	8.000000e-002	-4.881234e-012	5.538054e-012	-1.134560e+000
8.500000000000001e-002	8.500000e-002	-4.867329e-012	5.649859e-012	-1.160772e+000
9.000000000000001e-002	9.000000e-002	-4.852882e-012	5.785699e-012	-1.192219e+000
9.500000000000002e-002	9.500000e-002	-4.837797e-012	5.952885e-012	-1.230495e+000
1.000000000000000e-001	1.000000e-001	-4.822004e-012	6.153509e-012	-1.276131e+000
1.050000000000000e-001	1.050000e-001	-4.805392e-012	6.400109e-012	-1.331860e+000
1.100000000000000e-001	1.100000e-001	-4.787809e-012	6.698955e-012	-1.399169e+000
1.150000000000000e-001	1.150000e-001	-4.769171e-012	7.062586e-012	-1.480883e+000
1.200000000000000e-001	1.200000e-001	-4.749270e-012	7.502495e-012	-1.579715e+000
1.250000000000000e-001	1.250000e-001	-4.727940e-012	8.037493e-012	-1.699999e+000
1.300000000000000e-001	1.300000e-001	-4.704959e-012	8.686385e-012	-1.846219e+000
1.350000000000000e-001	1.350000e-001	-4.680090e-012	9.473207e-012	-2.024151e+000
1.400000000000000e-001	1.400000e-001	-4.653028e-012	1.042617e-011	-2.240728e+000
1.450000000000001e-001	1.450000e-001	-4.623468e-012	1.158394e-011	-2.505465e+000
1.500000000000001e-001	1.500000e-001	-4.590966e-012	1.298412e-011	-2.828190e+000
1.550000000000001e-001	1.550000e-001	-4.555162e-012	1.468316e-011	-3.223411e+000
1.600000000000001e-001	1.600000e-001	-4.515444e-012	1.674060e-011	-3.707409e+000
1.650000000000001e-001	1.650000e-001	-4.471229e-012	1.923377e-011	-4.301673e+000
1.700000000000001e-001	1.700000e-001	-4.421880e-012	2.225462e-011	-5.032841e+000
1.750000000000001e-001	1.750000e-001	-4.366535e-012	2.591391e-011	-5.934663e+000
1.800000000000001e-001	1.800000e-001	-4.304168e-012	3.034644e-011	-7.050478e+000
1.850000000000001e-001	1.850000e-001	-4.233724e-012	3.571627e-011	-8.436134e+000
1.900000000000001e-001	1.900000e-001	-4.153844e-012	4.222087e-011	-1.016429e+001
1.950000000000001e-001	1.950000e-001	-4.063055e-012	5.009849e-011	-1.233025e+001
2.000000000000001e-001	2.000000e-001	-3.959499e-012	5.964066e-011	-1.506268e+001
2.050000000000001e-001	2.050000e-001	-3.841122e-012	7.119847e-011	-1.853585e+001
2.100000000000001e-001	2.100000e-001	-3.705314e-012	8.519616e-011	-2.299297e+001
2.150000000000001e-001	2.150000e-001	-3.549244e-012	1.021499e-010	-2.878075e+001
2.200000000000001e-001	2.200000e-001	-3.369527e-012	1.226846e-010	-3.641004e+001
2.250000000000001e-001	2.250000e-001	-3.161971e-012	1.475546e-010	-4.666541e+001
2.300000000000001e-001	2.300000e-001	-2.921829e-012	1.776754e-010	-6.080964e+001
2.350000000000001e-001	2.350000e-001	-2.643441e-012	2.141544e-010	-8.101351e+001
2.400000000000001e-001	2.400000e-001	-2.320200e-012	2.583366e-010	-1.113424e+002
2.450000000000001e-001	2.450000e-001	-1.944139e-012	3.118457e-010	-1.604030e+002
2.500000000000001e-001	2.500000e-001	-1.505795e-012	3.766503e-010	-2.501338e+002
2.550000000000001e-001	2.550000e-001	-9.941492e-013	4.551371e-010	-4.578157e+002
2.600000000000001e-001	2.600000e-001	-3.960166e-013	5.501921e-010	-1.389316e+003
2.650000000000001e-001	2.650000e-001	3.044787e-013	6.653136e-010	2.185091e+003
2.700000000000001e-001	2.700000e-001	1.125655e-012	8.047367e-010	7.149052e+002
2.750000000000001e-001	2.750000e-001	2.090050e-012	9.735930e-010	4.658227e+002
2.800000000000001e-001	2.800000e-001	3.223977e-012	1.178092e-009	3.654159e+002
2.850000000000001e-001	2.850000e-001	4.558798e-012	1.425763e-009	3.127497e+002
2.900000000000002e-001	2.900000e-001	6.132483e-012	1.725714e-009	2.814054e+002
2.950000000000002e-001	2.950000e-001	7.989609e-012	2.088983e-009	2.614625e+002
3.000000000000002e-001	3.000000e-001	1.018413e-011	2.528936e-009	2.483212e+002
3.050000000000002e-001	3.050000e-001	1.278011e-011	3.061760e-009	2.395723e+002
3.100000000000002e-001	3.100000e-001	1.585426e-011	3.707057e-009	2.338209e+002
3.150000000000002e-001	3.150000e-001	1.949868e-011	4.488572e-009	2.301987e+002
3.200000000000002e-001	3.200000e-001	2.382350e-011	5.435056e-009	2.281385e+002
3.250000000000002e-001	3.250000e-001	2.896072e-011	6.581335e-009	2.272504e+002
3.300000000000002e-001	3.300000e-001	3.506900e-011	7.969581e-009	2.272543e+002
3.350000000000002e-001	3.350000e-001	4.233830e-011	9.650871e-009	2.279466e+002
3.400000000000002e-001	3.400000e-001	5.099704e-011	1.168706e-008	2.291714e+002
3.450000000000002e-001	3.450000e-001	6.131951e-011	1.415307e-008	2.308086e+002
3.500000000000002e-001	3.500000e-001	7.363543e-011	1.713962e-008	2.327633e+002
3.550000000000002e-001	3.550000e-001	8.834133e-011	2.075659e-008	2.349590e+002
3.600000000000002e-001	3.600000e-001	1.059139e-010	2.513706e-008	2.373347e+002
3.650000000000002e-001	3.650000e-001	1.269276e-010	3.044217e-008	2.398389e+002
3.700000000000002e-001	3.700000e-001	1.520731e-010	3.686711e-008	2.424302e+002
3.750000000000002e-001	3.750000e-001	1.821828e-010	4.464825e-008	2.450738e+002
3.800000000000002e-001	3.800000e-001	2.182595e-010	5.407183e-008	2.477410e+002
3.850000000000002e-001	3.849999e-001	2.615117e-010	6.548453e-008	2.504076e+002
3.900000000000002e-001	3.899999e-001	3.133962e-010	7.930619e-008	2.530541e+002
3.950000000000002e-001	3.949999e-001	3.756698e-010	9.604525e-008	2.556640e+002
4.000000000000002e-001	3.999999e-001	4.504515e-010	1.163174e-007	2.582241e+002
4.050000000000003e-001	4.049999e-001	5.402981e-010	1.408684e-007	2.607235e+002
4.100000000000003e-001	4.099998e-001	6.482953e-010	1.706012e-007	2.631535e+002
4.150000000000003e-001	4.149998e-001	7.781675e-010	2.066093e-007	2.655075e+002
4.200000000000003e-001	4.199998e-001	9.344114e-010	2.502169e-007	2.677802e+002
4.250000000000003e-001	4.249997e-001	1.122457e-009	3.030275e-007	2.699679e+002
4.300000000000003e-001	4.299997e-001	1.348864e-009	3.669829e-007	2.720680e+002
4.350000000000003e-001	4.349996e-001	1.621556e-009	4.444341e-007	2.740788e+002
4.400000000000003e-001	4.399996e-001	1.950105e-009	5.382281e-007	2.759995e+002
4.450000000000003e-001	4.449995e-001	2.346081e-009	6.518113e-007	2.778299e+002
4.500000000000003e-001	4.499994e-001	2.823465e-009	7.893569e-007	2.795703e+002
4.550000000000003e-001	4.549992e-001	3.399158e-009	9.559166e-007	2.812216e+002
4.600000000000003e-001	4.599991e-001	4.093591e-009	1.157605e-006	2.827848e+002
4.650000000000003e-001	4.649989e-001	4.931467e-009	1.401825e-006	2.842612e+002
4.700000000000003e-001	4.699987e-001	5.942656e-009	1.697532e-006	2.856522e+002
4.750000000000003e-001	4.749984e-001	7.163277e-009	2.055567e-006	2.869590e+002
4.800000000000003e-001	4.799981e-001	8.637015e-009	2.489041e-006	2.881831e+002
4.850000000000003e-001	4.849977e-001	1.041670e-008	3.013816e-006	2.893254e+002
4.900000000000003e-001	4.899972e-001	1.256624e-008	3.649071e-006	2.903868e+002
4.950000000000003e-001	4.949967e-001	1.516294e-008	4.417989e-006	2.913676e+002
5.000000000000003e-001	4.999960e-001	1.830029e-008	5.348584e-006	2.922677e+002
5.050000000000003e-001	5.049952e-001	2.209141e-008	6.474691e-006	2.930864e+002
5.100000000000003e-001	5.099941e-001	2.667311e-008	7.837149e-006	2.938221e+002
5.150000000000004e-001	5.149929e-001	3.221091e-008	9.485222e-006	2.944723e+002
5.200000000000004e-001	5.199915e-001	3.890501e-008	1.147828e-005	2.950334e+002
5.250000000000004e-001	5.249897e-001	4.699757e-008	1.388779e-005	2.955002e+002
5.300000000000004e-001	5.299875e-001	5.678144e-008	1.679970e-005	2.958661e+002
5.350000000000004e-001	5.349849e-001	6.861080e-008	2.031720e-005	2.961225e+002
5.400000000000004e-001	5.399818e-001	8.291386e-008	2.456393e-005	2.962584e+002
5.450000000000004e-001	5.449780e-001	1.002083e-007	2.968773e-005	2.962602e+002
5.500000000000004e-001	5.499734e-001	1.211198e-007	3.586489e-005	2.961110e+002
5.550000000000004e-001	5.549678e-001	1.464041e-007	4.330491e-005	2.957903e+002
5.600000000000004e-001	5.599611e-001	1.769742e-007	5.225576e-005	2.952734e+002
5.650000000000004e-001	5.649529e-001	2.139321e-007	6.300951e-005	2.945305e+002
5.700000000000004e-001	5.699431e-001	2.586072e-007	7.590806e-005	2.935265e+002
5.750000000000004e-001	5.749312e-001	3.126026e-007	9.134876e-005	2.922201e+002
5.800000000000004e-001	5.799169e-001	3.778493e-007	1.097892e-004	2.905633e+002
5.850000000000004e-001	5.848995e-001	4.566712e-007	1.317503e-004	2.885014e+002
5.900000000000004e-001	5.898786e-001	5.518622e-007	1.578172e-004	2.859722e+002
5.950000000000004e-001	5.948533e-001	6.667761e-007	1.886357e-004	2.829071e+002
6.000000000000004e-001	5.995123e-001	2.216935e-006	2.143557e-004	9.669012e+001
6.050000000000004e-001	6.033925e-001	7.306973e-006	2.159922e-004	2.955973e+001
6.100000000000004e-001	6.071423e-001	1.298965e-005	2.165731e-004	1.667274e+001
6.150000000000004e-001	6.107653e-001	1.924837e-005	2.169055e-004	1.126877e+001
6.200000000000004e-001	6.142579e-001	2.610045e-005	2.171263e-004	8.318870e+000
6.250000000000004e-001	6.176174e-001	3.355753e-005	2.172845e-004	6.474987e+000
6.300000000000005e-001	6.208428e-001	4.162400e-005	2.174033e-004	5.223028e+000
6.350000000000005e-001	6.239346e-001	5.029753e-005	2.174953e-004	4.324175e+000
6.400000000000005e-001	6.268948e-001	5.956984e-005	2.175683e-004	3.652323e+000
6.450000000000005e-001	6.297261e-001	6.942763e-005	2.176271e-004	3.134590e+000
6.500000000000005e-001	6.324323e-001	7.985358e-005	2.176753e-004	2.725931e+000
6.550000000000005e-001	6.350181e-001	9.082726e-005	2.177153e-004	2.397026e+000
6.600000000000005e-001	6.374884e-001	1.023260e-004	2.177488e-004	2.127990e+000
6.650000000000005e-001	6.398484e-001	1.143258e-004	2.177770e-004	1.904880e+000
6.700000000000005e-001	6.421037e-001	1.268019e-004	2.178011e-004	1.717649e+000
6.750000000000005e-001	6.442597e-001	1.397292e-004	2.178218e-004	1.558885e+000
6.800000000000005e-001	6.463218e-001	1.530831e-004	2.178396e-004	1.423015e+000
6.850000000000005e-001	6.482955e-001	1.668393e-004	2.178551e-004	1.305778e+000
6.900000000000005e-001	6.501857e-001	1.809745e-004	2.178686e-004	1.203863e+000
6.950000000000005e-001	6.519974e-001	1.954664e-004	2.178804e-004	1.114669e+000
7.000000000000005e-001	6.537355e-001	2.102937e-004	2.178908e-004	1.036127e+000
7.050000000000005e-001	6.554041e-001	2.254362e-004	2.179001e-004	9.665708e-001
7.100000000000005e-001	6.570075e-001	2.408751e-004	2.179083e-004	9.046523e-001
7.150000000000005e-001	6.585497e-001	2.565926e-004	2.179155e-004	8.492665e-001
7.200000000000005e-001	6.600342e-001	2.725721e-004	2.179220e-004	7.995023e-001
7.250000000000005e-001	6.614645e-001	2.887980e-004	2.179279e-004	7.546030e-001
7.300000000000005e-001	6.628438e-001	3.052559e-004	2.179331e-004	7.139358e-001
7.350000000000005e-001	6.641750e-001	3.219322e-004	2.179378e-004	6.769681e-001
7.400000000000006e-001	6.654609e-001	3.388144e-004	2.179421e-004	6.432492e-001
7.450000000000006e-001	6.667041e-001	3.558907e-004	2.179459e-004	6.123955e-001
7.500000000000006e-001	6.679069e-001	3.731504e-004	2.179494e-004	5.840791e-001
7.550000000000006e-001	6.690717e-001	3.905832e-004	2.179525e-004	5.580180e-001
7.600000000000006e-001	6.702005e-001	4.081799e-004	2.179553e-004	5.339689e-001
7.650000000000006e-001	6.712951e-001	4.259314e-004	2.179579e-004	5.117207e-001
7.700000000000006e-001	6.723574e-001	4.438298e-004	2.179603e-004	4.910898e-001
7.750000000000006e-001	6.733892e-001	4.618674e-004	2.179624e-004	4.719156e-001
7.800000000000006e-001	6.743919e-001	4.800370e-004	2.179644e-004	4.540574e-001
7.850000000000006e-001	6.753669e-001	4.983321e-004	2.179661e-004	4.373913e-001
7.900000000000006e-001	6.763158e-001	5.167464e-004	2.179677e-004	4.218079e-001
7.950000000000006e-001	6.772397e-001	5.352742e-004	2.179692e-004	4.072104e-001
8.000000000000006e-001	6.781398e-001	5.539100e-004	2.179705e-004	3.935125e-001
8.050000000000006e-001	6.790173e-001	5.726487e-004	2.179717e-004	3.806377e-001
8.100000000000006e-001	6.798732e-001	5.914857e-004	2.179728e-004	3.685175e-001
8.150000000000006e-001	6.807084e-001	6.104165e-004	2.179738e-004	3.570903e-001
8.200000000000006e-001	6.815239e-001	6.294367e-004	2.179747e-004	3.463012e-001
8.250000000000006e-001	6.823206e-001	6.485427e-004	2.179755e-004	3.361005e-001
8.300000000000006e-001	6.830993e-001	6.677305e-004	2.179762e-004	3.264434e-001
8.350000000000006e-001	6.838607e-001	6.869968e-004	2.179769e-004	3.172895e-001
8.400000000000006e-001	6.846056e-001	7.063383e-004	2.179774e-004	3.086020e-001
8.450000000000006e-001	6.853346e-001	7.257519e-004	2.179780e-004	3.003477e-001
8.500000000000006e-001	6.860484e-001	7.452347e-004	2.179784e-004	2.924963e-001
8.550000000000007e-001	6.867476e-001	7.647839e-004	2.179788e-004	2.850201e-001
8.600000000000007e-001	6.874327e-001	7.843969e-004	2.179791e-004	2.778939e-001
8.650000000000007e-001	6.881043e-001	8.040713e-004	2.179794e-004	2.710947e-001
8.700000000000007e-001	6.887630e-001	8.238046e-004	2.179797e-004	2.646012e-001
8.750000000000007e-001	6.894091e-001	8.435949e-004	2.179799e-004	2.583940e-001
8.800000000000007e-001	6.900432e-001	8.634399e-004	2.179801e-004	2.524554e-001
8.850000000000007e-001	6.906657e-001	8.833376e-004	2.179802e-004	2.467688e-001
8.900000000000007e-001	6.912770e-001	9.032862e-004	2.179803e-004	2.413191e-001
8.950000000000007e-001	6.918775e-001	9.232839e-004	2.179803e-004	2.360924e-001
9.000000000000007e-001	6.924676e-001	9.433290e-004	2.179803e-004	2.310756e-001
9.050000000000007e-001	6.930476e-001	9.634199e-004	2.179803e-004	2.262568e-001
9.100000000000007e-001	6.936179e-001	9.835550e-004	2.179803e-004	2.216249e-001
9.150000000000007e-001	6.941788e-001	1.003733e-003	2.179802e-004	2.171696e-001
9.200000000000007e-001	6.947306e-001	1.023952e-003	2.179802e-004	2.128812e-001
9.250000000000007e-001	6.952735e-001	1.044211e-003	2.179801e-004	2.087509e-001
9.300000000000007e-001	6.958079e-001	1.064509e-003	2.179799e-004	2.047703e-001
9.350000000000007e-001	6.963341e-001	1.084845e-003	2.179798e-004	2.009318e-001
9.400000000000007e-001	6.968523e-001	1.105217e-003	2.179796e-004	1.972279e-001
9.450000000000007e-001	6.973627e-001	1.125624e-003	2.179794e-004	1.936521e-001
9.500000000000007e-001	6.978656e-001	1.146065e-003	2.179792e-004	1.901979e-001
9.550000000000007e-001	6.983612e-001	1.166540e-003	2.179790e-004	1.868594e-001
9.600000000000007e-001	6.988497e-001	1.187047e-003	2.179787e-004	1.836311e-001
9.650000000000008e-001	6.993313e-001	1.207585e-003	2.179785e-004	1.805078e-001
9.700000000000008e-001	6.998063e-001	1.228153e-003	2.179782e-004	1.774845e-001
9.750000000000008e-001	7.002747e-001	1.248751e-003	2.179779e-004	1.745567e-001
9.800000000000008e-001	7.007368e-001	1.269378e-003	2.179776e-004	1.717200e-001
9.850000000000008e-001	7.011928e-001	1.290033e-003	2.179773e-004	1.689704e-001
9.900000000000008e-001	7.016428e-001	1.310715e-003	2.179770e-004	1.663039e-001
9.950000000000008e-001	7.020870e-001	1.331423e-003	2.179766e-004	1.637171e-001
1.000000000000001e+000	7.025255e-001	1.352157e-003	2.179763e-004	1.612064e-001
1.005000000000001e+000	7.029585e-001	1.372916e-003	2.179759e-004	1.587686e-001
1.010000000000001e+000	7.033861e-001	1.393699e-003	2.179756e-004	1.564007e-001
1.015000000000000e+000	7.038085e-001	1.414506e-003	2.179752e-004	1.540998e-001
1.020000000000000e+000	7.042259e-001	1.435337e-003	2.179748e-004	1.518632e-001
1.025000000000000e+000	7.046382e-001	1.456190e-003	2.179744e-004	1.496882e-001
1.030000000000000e+000	7.050457e-001	1.477065e-003	2.179740e-004	1.475724e-001
1.035000000000000e+000	7.054485e-001	1.497961e-003	2.179736e-004	1.455135e-001
1.040000000000000e+000	7.058466e-001	1.518879e-003	2.179731e-004	1.435092e-001
1.045000000000000e+000	7.062403e-001	1.539817e-003	2.179727e-004	1.415575e-001
1.050000000000000e+000	7.066295e-001	1.560775e-003	2.179723e-004	1.396565e-001
1.055000000000000e+000	7.070145e-001	1.581752e-003	2.179718e-004	1.378040e-001
1.059999999999999e+000	7.073953e-001	1.602749e-003	2.179714e-004	1.359984e-001
1.064999999999999e+000	7.077719e-001	1.623764e-003	2.179709e-004	1.342380e-001
1.069999999999999e+000	7.081445e-001	1.644798e-003	2.179705e-004	1.325212e-001
1.074999999999999e+000	7.085133e-001	1.665849e-003	2.179700e-004	1.308462e-001
1.079999999999999e+000	7.088782e-001	1.686917e-003	2.179695e-004	1.292117e-001
1.084999999999999e+000	7.092394e-001	1.708003e-003	2.179690e-004	1.276163e-001
1.089999999999999e+000	7.095969e-001	1.729105e-003	2.179686e-004	1.260586e-001
1.094999999999999e+000	7.099507e-001	1.750224e-003	2.179681e-004	1.245373e-001
1.099999999999999e+000	7.103012e-001	1.771358e-003	2.179676e-004	1.230511e-001
1.104999999999998e+000	7.106481e-001	1.792509e-003	2.179671e-004	1.215989e-001
1.109999999999998e+000	7.109917e-001	1.813674e-003	2.179666e-004	1.201796e-001
1.114999999999998e+000	7.113321e-001	1.834854e-003	2.179661e-004	1.187920e-001
1.119999999999998e+000	7.116691e-001	1.856049e-003	2.179655e-004	1.174352e-001
1.124999999999998e+000	7.120031e-001	1.877259e-003	2.179650e-004	1.161081e-001
1.129999999999998e+000	7.123339e-001	1.898482e-003	2.179645e-004	1.148099e-001
1.134999999999998e+000	7.126617e-001	1.919719e-003	2.179640e-004	1.135395e-001
1.139999999999998e+000	7.129866e-001	1.940970e-003	2.179634e-004	1.122961e-001
1.144999999999998e+000	7.133085e-001	1.962234e-003	2.179629e-004	1.110790e-001
1.149999999999998e+000	7.136275e-001	1.983511e-003	2.179624e-004	1.098871e-001
1.154999999999997e+000	7.139438e-001	2.004801e-003	2.179618e-004	1.087199e-001
1.159999999999997e+000	7.142573e-001	2.026103e-003	2.179613e-004	1.075766e-001
1.164999999999997e+000	7.145681e-001	2.047418e-003	2.179608e-004	1.064564e-001
1.169999999999997e+000	7.148762e-001	2.068744e-003	2.179602e-004	1.053587e-001
1.174999999999997e+000	7.151818e-001	2.090083e-003	2.179597e-004	1.042828e-001
1.179999999999997e+000	7.154848e-001	2.111433e-003	2.179591e-004	1.032281e-001
1.184999999999997e+000	7.157853e-001	2.132794e-003	2.179586e-004	1.021939e-001
1.189999999999997e+000	7.160833e-001	2.154167e-003	2.179580e-004	1.011797e-001
1.194999999999997e+000	7.163790e-001	2.175550e-003	2.179574e-004	1.001850e-001
1.199999999999996e+000	7.166722e-001	2.196944e-003	2.179569e-004	9.920910e-002
1.204999999999996e+000	7.169632e-001	2.218349e-003	2.179563e-004	9.825157e-002
1.209999999999996e+000	7.172518e-001	2.239765e-003	2.179557e-004	9.731189e-002
1.214999999999996e+000	7.175382e-001	2.261190e-003	2.179552e-004	9.638958e-002
1.219999999999996e+000	7.178224e-001	2.282626e-003	2.179546e-004	9.548416e-002
1.224999999999996e+000	7.181044e-001	2.304071e-003	2.179540e-004	9.459518e-002
1.229999999999996e+000	7.183842e-001	2.325526e-003	2.179534e-004	9.372221e-002
1.234999999999996e+000	7.186620e-001	2.346991e-003	2.179529e-004	9.286480e-002
1.239999999999996e+000	7.189377e-001	2.368465e-003	2.179523e-004	9.202259e-002
1.244999999999995e+000	7.192113e-001	2.389949e-003	2.179517e-004	9.119514e-002
1.249999999999995e+000	7.194830e-001	2.411441e-003	2.179511e-004	9.038211e-002
