vdd	V(ds)	Id(M1)
0.000000000000000e+000	0.000000e+000	4.268018e-032
1.000000000000000e-001	1.000000e-001	1.383444e-004
2.000000000000000e-001	2.000000e-001	2.649243e-004
3.000000000000000e-001	3.000000e-001	3.794538e-004
4.000000000000000e-001	4.000000e-001	4.816407e-004
5.000000000000000e-001	5.000000e-001	5.711928e-004
6.000000000000000e-001	6.000000e-001	6.478187e-004
7.000000000000000e-001	7.000000e-001	7.112293e-004
7.999999999999999e-001	8.000000e-001	7.611384e-004
8.999999999999999e-001	9.000000e-001	7.972647e-004
9.999999999999999e-001	1.000000e+000	8.193321e-004
1.100000000000000e+000	1.100000e+000	8.270713e-004
1.200000000000000e+000	1.200000e+000	8.271121e-004
1.300000000000000e+000	1.300000e+000	8.271447e-004
1.400000000000000e+000	1.400000e+000	8.271762e-004
1.500000000000000e+000	1.500000e+000	8.272078e-004
1.600000000000000e+000	1.600000e+000	8.272394e-004
1.700000000000000e+000	1.700000e+000	8.272709e-004
1.800000000000001e+000	1.800000e+000	8.273025e-004
1.900000000000001e+000	1.900000e+000	8.273341e-004
2.000000000000000e+000	2.000000e+000	8.273656e-004
2.100000000000001e+000	2.100000e+000	8.273972e-004
2.200000000000001e+000	2.200000e+000	8.274288e-004
2.300000000000001e+000	2.300000e+000	8.274603e-004
2.400000000000001e+000	2.400000e+000	8.274919e-004
2.500000000000001e+000	2.500000e+000	8.275235e-004
2.600000000000001e+000	2.600000e+000	8.275551e-004
2.700000000000001e+000	2.700000e+000	8.275866e-004
2.800000000000001e+000	2.800000e+000	8.276182e-004
2.900000000000001e+000	2.900000e+000	8.276498e-004
3.000000000000001e+000	3.000000e+000	8.276813e-004
3.100000000000001e+000	3.100000e+000	8.277129e-004
3.200000000000002e+000	3.200000e+000	8.277445e-004
3.300000000000002e+000	3.300000e+000	8.277761e-004
3.400000000000002e+000	3.400000e+000	8.278076e-004
3.500000000000002e+000	3.500000e+000	8.278392e-004
3.600000000000002e+000	3.600000e+000	8.278708e-004
3.700000000000002e+000	3.700000e+000	8.279024e-004
3.800000000000002e+000	3.800000e+000	8.279340e-004
3.900000000000002e+000	3.900000e+000	8.279656e-004
4.000000000000002e+000	4.000000e+000	8.279972e-004
4.100000000000001e+000	4.100000e+000	8.280287e-004
4.200000000000001e+000	4.200000e+000	8.280603e-004
4.300000000000001e+000	4.300000e+000	8.280919e-004
4.400000000000000e+000	4.400000e+000	8.281235e-004
4.500000000000000e+000	4.500000e+000	8.281550e-004
4.600000000000000e+000	4.600000e+000	8.281866e-004
4.699999999999999e+000	4.700000e+000	8.282182e-004
4.799999999999999e+000	4.800000e+000	8.282498e-004
4.899999999999999e+000	4.900000e+000	8.282814e-004
4.999999999999998e+000	5.000000e+000	8.283130e-004
5.099999999999998e+000	5.100000e+000	8.283445e-004
5.199999999999998e+000	5.200000e+000	8.283762e-004
5.299999999999997e+000	5.300000e+000	8.284077e-004
5.399999999999997e+000	5.400000e+000	8.284393e-004
5.499999999999996e+000	5.500000e+000	8.284709e-004
5.599999999999996e+000	5.600000e+000	8.285025e-004
5.699999999999996e+000	5.700000e+000	8.285341e-004
5.799999999999995e+000	5.800000e+000	8.285657e-004
5.899999999999995e+000	5.900000e+000	8.285973e-004
5.999999999999995e+000	6.000000e+000	8.286288e-004
6.099999999999994e+000	6.100000e+000	8.286604e-004
6.199999999999994e+000	6.200000e+000	8.286920e-004
6.299999999999994e+000	6.300000e+000	8.287236e-004
6.399999999999993e+000	6.400000e+000	8.287552e-004
6.499999999999993e+000	6.500000e+000	8.287868e-004
6.599999999999993e+000	6.600000e+000	8.288184e-004
6.699999999999992e+000	6.700000e+000	8.288500e-004
6.799999999999992e+000	6.800000e+000	8.288816e-004
6.899999999999992e+000	6.900000e+000	8.289132e-004
6.999999999999991e+000	7.000000e+000	8.289448e-004
7.099999999999991e+000	7.100000e+000	8.289764e-004
7.199999999999990e+000	7.200000e+000	8.290080e-004
7.299999999999990e+000	7.300000e+000	8.290395e-004
7.399999999999990e+000	7.400000e+000	8.290712e-004
7.499999999999989e+000	7.500000e+000	8.291028e-004
7.599999999999989e+000	7.600000e+000	8.291344e-004
7.699999999999989e+000	7.700000e+000	8.291660e-004
7.799999999999988e+000	7.800000e+000	8.291976e-004
7.899999999999988e+000	7.900000e+000	8.292291e-004
7.999999999999988e+000	8.000000e+000	8.292607e-004
8.099999999999987e+000	8.100000e+000	8.292923e-004
8.199999999999987e+000	8.200000e+000	8.293240e-004
8.299999999999987e+000	8.300000e+000	8.293556e-004
8.399999999999986e+000	8.400000e+000	8.293872e-004
8.499999999999986e+000	8.500000e+000	8.294188e-004
8.599999999999985e+000	8.600000e+000	8.294504e-004
8.699999999999985e+000	8.700000e+000	8.294820e-004
8.799999999999985e+000	8.800000e+000	8.295136e-004
8.899999999999984e+000	8.900000e+000	8.295452e-004
8.999999999999984e+000	9.000000e+000	8.295768e-004
9.099999999999984e+000	9.100000e+000	8.296084e-004
9.199999999999983e+000	9.200000e+000	8.296400e-004
9.299999999999983e+000	9.300000e+000	8.296716e-004
9.399999999999983e+000	9.400000e+000	8.297032e-004
9.499999999999982e+000	9.500000e+000	8.297348e-004
9.599999999999982e+000	9.600000e+000	8.297664e-004
9.699999999999982e+000	9.700000e+000	8.297981e-004
9.799999999999981e+000	9.800000e+000	8.298297e-004
9.899999999999981e+000	9.900000e+000	8.298613e-004
9.999999999999981e+000	1.000000e+001	8.298929e-004
1.009999999999998e+001	1.010000e+001	8.299245e-004
1.019999999999998e+001	1.020000e+001	8.299561e-004
1.029999999999998e+001	1.030000e+001	8.299877e-004
1.039999999999998e+001	1.040000e+001	8.300193e-004
1.049999999999998e+001	1.050000e+001	8.300509e-004
1.059999999999998e+001	1.060000e+001	8.300825e-004
1.069999999999998e+001	1.070000e+001	8.301141e-004
1.079999999999998e+001	1.080000e+001	8.301457e-004
1.089999999999998e+001	1.090000e+001	8.301773e-004
1.099999999999998e+001	1.100000e+001	8.302090e-004
1.109999999999998e+001	1.110000e+001	8.302406e-004
1.119999999999998e+001	1.120000e+001	8.302722e-004
1.129999999999998e+001	1.130000e+001	8.303038e-004
1.139999999999998e+001	1.140000e+001	8.303354e-004
1.149999999999998e+001	1.150000e+001	8.303670e-004
1.159999999999998e+001	1.160000e+001	8.303987e-004
1.169999999999997e+001	1.170000e+001	8.304303e-004
1.179999999999997e+001	1.180000e+001	8.304619e-004
1.189999999999997e+001	1.190000e+001	8.304935e-004
1.199999999999997e+001	1.200000e+001	8.305251e-004
1.209999999999997e+001	1.210000e+001	8.305568e-004
1.219999999999997e+001	1.220000e+001	8.305884e-004
1.229999999999997e+001	1.230000e+001	8.306200e-004
1.239999999999997e+001	1.240000e+001	8.306516e-004
1.249999999999997e+001	1.250000e+001	8.306833e-004
1.259999999999997e+001	1.260000e+001	8.307149e-004
1.269999999999997e+001	1.270000e+001	8.307465e-004
1.279999999999997e+001	1.280000e+001	8.307781e-004
1.289999999999997e+001	1.290000e+001	8.308098e-004
1.299999999999997e+001	1.300000e+001	8.308414e-004
1.309999999999997e+001	1.310000e+001	8.308730e-004
1.319999999999997e+001	1.320000e+001	8.309046e-004
1.329999999999997e+001	1.330000e+001	8.309362e-004
1.339999999999997e+001	1.340000e+001	8.309679e-004
1.349999999999997e+001	1.350000e+001	8.309995e-004
1.359999999999997e+001	1.360000e+001	8.310311e-004
1.369999999999997e+001	1.370000e+001	8.310627e-004
1.379999999999997e+001	1.380000e+001	8.310944e-004
1.389999999999997e+001	1.390000e+001	8.311260e-004
1.399999999999997e+001	1.400000e+001	8.311576e-004
1.409999999999997e+001	1.410000e+001	8.311893e-004
1.419999999999997e+001	1.420000e+001	8.312209e-004
1.429999999999997e+001	1.430000e+001	8.312525e-004
1.439999999999997e+001	1.440000e+001	8.312842e-004
1.449999999999996e+001	1.450000e+001	8.313158e-004
1.459999999999996e+001	1.460000e+001	8.313474e-004
1.469999999999996e+001	1.470000e+001	8.313790e-004
1.479999999999996e+001	1.480000e+001	8.314107e-004
1.489999999999996e+001	1.490000e+001	8.314423e-004
1.499999999999996e+001	1.500000e+001	8.314740e-004
1.509999999999996e+001	1.510000e+001	8.315056e-004
1.519999999999996e+001	1.520000e+001	8.315372e-004
1.529999999999996e+001	1.530000e+001	8.315688e-004
1.539999999999996e+001	1.540000e+001	8.316005e-004
1.549999999999996e+001	1.550000e+001	8.316321e-004
1.559999999999996e+001	1.560000e+001	8.316637e-004
1.569999999999996e+001	1.570000e+001	8.316954e-004
1.579999999999996e+001	1.580000e+001	8.317270e-004
1.589999999999996e+001	1.590000e+001	8.317587e-004
1.599999999999996e+001	1.600000e+001	8.317903e-004
1.609999999999996e+001	1.610000e+001	8.318219e-004
1.619999999999996e+001	1.620000e+001	8.318536e-004
1.629999999999996e+001	1.630000e+001	8.318852e-004
1.639999999999996e+001	1.640000e+001	8.319169e-004
1.649999999999996e+001	1.650000e+001	8.319485e-004
1.659999999999997e+001	1.660000e+001	8.319801e-004
1.669999999999997e+001	1.670000e+001	8.320118e-004
1.679999999999997e+001	1.680000e+001	8.320434e-004
1.689999999999997e+001	1.690000e+001	8.320751e-004
1.699999999999997e+001	1.700000e+001	8.321067e-004
1.709999999999997e+001	1.710000e+001	8.321384e-004
1.719999999999997e+001	1.720000e+001	8.321700e-004
1.729999999999998e+001	1.730000e+001	8.322016e-004
1.739999999999998e+001	1.740000e+001	8.322333e-004
1.749999999999998e+001	1.750000e+001	8.322650e-004
1.759999999999998e+001	1.760000e+001	8.322966e-004
1.769999999999998e+001	1.770000e+001	8.323282e-004
1.779999999999998e+001	1.780000e+001	8.323599e-004
1.789999999999998e+001	1.790000e+001	8.323915e-004
1.799999999999999e+001	1.800000e+001	8.324232e-004
1.809999999999999e+001	1.810000e+001	8.324548e-004
1.819999999999999e+001	1.820000e+001	8.324865e-004
1.829999999999999e+001	1.830000e+001	8.325181e-004
1.839999999999999e+001	1.840000e+001	8.325498e-004
1.849999999999999e+001	1.850000e+001	8.325814e-004
1.859999999999999e+001	1.860000e+001	8.326130e-004
1.870000000000000e+001	1.870000e+001	8.326447e-004
1.880000000000000e+001	1.880000e+001	8.326764e-004
1.890000000000000e+001	1.890000e+001	8.327080e-004
1.900000000000000e+001	1.900000e+001	8.327397e-004
1.910000000000000e+001	1.910000e+001	8.327713e-004
1.920000000000000e+001	1.920000e+001	8.328030e-004
1.930000000000000e+001	1.930000e+001	8.328346e-004
1.940000000000001e+001	1.940000e+001	8.328663e-004
1.950000000000001e+001	1.950000e+001	8.328980e-004
1.960000000000001e+001	1.960000e+001	8.329296e-004
1.970000000000001e+001	1.970000e+001	8.329612e-004
1.980000000000001e+001	1.980000e+001	8.329929e-004
1.990000000000001e+001	1.990000e+001	8.330246e-004
2.000000000000000e+001	2.000000e+001	8.330562e-004
