v2	V(ds)	I(R1)
0.000000000000000e+000	-2.543157e-022	4.798410e-026
1.000000000000000e-001	7.025848e-004	1.873536e-005
2.000000000000000e-001	1.409922e-003	3.746982e-005
3.000000000000000e-001	2.122109e-003	5.620337e-005
4.000000000000000e-001	2.839249e-003	7.493599e-005
5.000000000000000e-001	3.561447e-003	9.366765e-005
6.000000000000000e-001	4.288813e-003	1.123983e-004
7.000000000000000e-001	5.021460e-003	1.311280e-004
7.999999999999999e-001	5.759507e-003	1.498567e-004
8.999999999999999e-001	6.503074e-003	1.685843e-004
9.999999999999999e-001	7.252290e-003	1.873109e-004
1.100000000000000e+000	8.007285e-003	2.060364e-004
1.200000000000000e+000	8.768197e-003	2.247607e-004
1.300000000000000e+000	9.535169e-003	2.434839e-004
1.400000000000000e+000	1.030835e-002	2.622060e-004
1.500000000000000e+000	1.108789e-002	2.809268e-004
1.600000000000000e+000	1.187395e-002	2.996464e-004
1.700000000000000e+000	1.266671e-002	3.183648e-004
1.800000000000001e+000	1.346633e-002	3.370818e-004
1.900000000000001e+000	1.427300e-002	3.557976e-004
2.000000000000000e+000	1.508691e-002	3.745119e-004
2.100000000000001e+000	1.590826e-002	3.932249e-004
2.200000000000001e+000	1.673726e-002	4.119364e-004
2.300000000000001e+000	1.757413e-002	4.306464e-004
2.400000000000001e+000	1.841910e-002	4.493549e-004
2.500000000000001e+000	1.927241e-002	4.680618e-004
2.600000000000001e+000	2.013431e-002	4.867671e-004
2.700000000000001e+000	2.100508e-002	5.054707e-004
2.800000000000001e+000	2.188499e-002	5.241726e-004
2.900000000000001e+000	2.277433e-002	5.428728e-004
3.000000000000001e+000	2.367343e-002	5.615710e-004
3.100000000000001e+000	2.458261e-002	5.802675e-004
3.200000000000002e+000	2.550223e-002	5.989618e-004
3.300000000000002e+000	2.643264e-002	6.176542e-004
3.400000000000002e+000	2.737425e-002	6.363445e-004
3.500000000000002e+000	2.832747e-002	6.550326e-004
3.600000000000002e+000	2.929274e-002	6.737183e-004
3.700000000000002e+000	3.027053e-002	6.924018e-004
3.800000000000002e+000	3.126136e-002	7.110828e-004
3.900000000000002e+000	3.226576e-002	7.297612e-004
4.000000000000002e+000	3.328430e-002	7.484369e-004
4.100000000000001e+000	3.431761e-002	7.671099e-004
4.200000000000001e+000	3.536634e-002	7.857799e-004
4.300000000000001e+000	3.643122e-002	8.044469e-004
4.400000000000000e+000	3.751303e-002	8.231107e-004
4.500000000000000e+000	3.861259e-002	8.417712e-004
4.600000000000000e+000	3.973082e-002	8.604281e-004
4.699999999999999e+000	4.086871e-002	8.790814e-004
4.799999999999999e+000	4.202734e-002	8.977307e-004
4.899999999999999e+000	4.320788e-002	9.163759e-004
4.999999999999998e+000	4.441166e-002	9.350167e-004
5.099999999999998e+000	4.564009e-002	9.536528e-004
5.199999999999998e+000	4.689477e-002	9.722840e-004
5.299999999999997e+000	4.817746e-002	9.909099e-004
5.399999999999997e+000	4.949014e-002	1.009530e-003
5.499999999999996e+000	5.083502e-002	1.028144e-003
5.599999999999996e+000	5.221462e-002	1.046752e-003
5.699999999999996e+000	5.363178e-002	1.065352e-003
5.799999999999995e+000	5.508976e-002	1.083945e-003
5.899999999999995e+000	5.659232e-002	1.102530e-003
5.999999999999995e+000	5.814384e-002	1.121105e-003
6.099999999999994e+000	5.974947e-002	1.139670e-003
6.199999999999994e+000	6.141532e-002	1.158223e-003
6.299999999999994e+000	6.314874e-002	1.176764e-003
6.399999999999993e+000	6.495875e-002	1.195291e-003
6.499999999999993e+000	6.685651e-002	1.213801e-003
6.599999999999993e+000	6.885624e-002	1.232291e-003
6.699999999999992e+000	7.097644e-002	1.250759e-003
6.799999999999992e+000	7.324199e-002	1.269200e-003
6.899999999999992e+000	7.568776e-002	1.287606e-003
6.999999999999991e+000	7.836519e-002	1.305969e-003
7.099999999999991e+000	8.135608e-002	1.324272e-003
7.199999999999990e+000	8.480547e-002	1.342490e-003
7.299999999999990e+000	8.902106e-002	1.360562e-003
7.399999999999990e+000	9.509651e-002	1.378284e-003
7.499999999999989e+000	1.491065e-001	1.386961e-003
7.599999999999989e+000	2.491065e-001	1.386961e-003
7.699999999999989e+000	3.491065e-001	1.386961e-003
7.799999999999988e+000	4.491065e-001	1.386961e-003
7.899999999999988e+000	5.491065e-001	1.386961e-003
7.999999999999988e+000	6.491064e-001	1.386961e-003
8.099999999999987e+000	7.491065e-001	1.386961e-003
8.199999999999987e+000	8.491064e-001	1.386961e-003
8.299999999999987e+000	9.491065e-001	1.386961e-003
8.399999999999986e+000	1.049106e+000	1.386961e-003
8.499999999999986e+000	1.149107e+000	1.386961e-003
8.599999999999985e+000	1.249106e+000	1.386961e-003
8.699999999999985e+000	1.349106e+000	1.386961e-003
8.799999999999985e+000	1.449106e+000	1.386961e-003
8.899999999999984e+000	1.549106e+000	1.386961e-003
8.999999999999984e+000	1.649107e+000	1.386961e-003
9.099999999999984e+000	1.749106e+000	1.386961e-003
9.199999999999983e+000	1.849106e+000	1.386961e-003
9.299999999999983e+000	1.949106e+000	1.386961e-003
9.399999999999983e+000	2.049106e+000	1.386961e-003
9.499999999999982e+000	2.149107e+000	1.386961e-003
9.599999999999982e+000	2.249106e+000	1.386961e-003
9.699999999999982e+000	2.349107e+000	1.386961e-003
9.799999999999981e+000	2.449106e+000	1.386961e-003
9.899999999999981e+000	2.549106e+000	1.386961e-003
9.999999999999981e+000	2.649107e+000	1.386961e-003
1.009999999999998e+001	2.749106e+000	1.386961e-003
1.019999999999998e+001	2.849107e+000	1.386961e-003
1.029999999999998e+001	2.949106e+000	1.386961e-003
1.039999999999998e+001	3.049106e+000	1.386961e-003
1.049999999999998e+001	3.149107e+000	1.386961e-003
1.059999999999998e+001	3.249106e+000	1.386961e-003
1.069999999999998e+001	3.349106e+000	1.386961e-003
1.079999999999998e+001	3.449106e+000	1.386961e-003
1.089999999999998e+001	3.549106e+000	1.386961e-003
1.099999999999998e+001	3.649107e+000	1.386961e-003
1.109999999999998e+001	3.749106e+000	1.386961e-003
1.119999999999998e+001	3.849106e+000	1.386961e-003
1.129999999999998e+001	3.949106e+000	1.386961e-003
1.139999999999998e+001	4.049107e+000	1.386961e-003
1.149999999999998e+001	4.149107e+000	1.386961e-003
1.159999999999998e+001	4.249106e+000	1.386961e-003
1.169999999999997e+001	4.349106e+000	1.386961e-003
1.179999999999997e+001	4.449106e+000	1.386961e-003
1.189999999999997e+001	4.549107e+000	1.386961e-003
1.199999999999997e+001	4.649107e+000	1.386961e-003
1.209999999999997e+001	4.749106e+000	1.386961e-003
1.219999999999997e+001	4.849106e+000	1.386961e-003
1.229999999999997e+001	4.949106e+000	1.386961e-003
1.239999999999997e+001	5.049107e+000	1.386961e-003
1.249999999999997e+001	5.149107e+000	1.386961e-003
1.259999999999997e+001	5.249106e+000	1.386961e-003
1.269999999999997e+001	5.349106e+000	1.386961e-003
1.279999999999997e+001	5.449106e+000	1.386961e-003
1.289999999999997e+001	5.549107e+000	1.386961e-003
1.299999999999997e+001	5.649107e+000	1.386961e-003
1.309999999999997e+001	5.749106e+000	1.386961e-003
1.319999999999997e+001	5.849106e+000	1.386961e-003
1.329999999999997e+001	5.949106e+000	1.386961e-003
1.339999999999997e+001	6.049107e+000	1.386961e-003
1.349999999999997e+001	6.149107e+000	1.386961e-003
1.359999999999997e+001	6.249106e+000	1.386961e-003
1.369999999999997e+001	6.349106e+000	1.386961e-003
1.379999999999997e+001	6.449106e+000	1.386961e-003
1.389999999999997e+001	6.549107e+000	1.386961e-003
1.399999999999997e+001	6.649107e+000	1.386961e-003
1.409999999999997e+001	6.749106e+000	1.386961e-003
1.419999999999997e+001	6.849106e+000	1.386961e-003
1.429999999999997e+001	6.949106e+000	1.386961e-003
1.439999999999997e+001	7.049107e+000	1.386961e-003
1.449999999999996e+001	7.149107e+000	1.386961e-003
1.459999999999996e+001	7.249106e+000	1.386961e-003
1.469999999999996e+001	7.349106e+000	1.386961e-003
1.479999999999996e+001	7.449106e+000	1.386961e-003
1.489999999999996e+001	7.549107e+000	1.386961e-003
1.499999999999996e+001	7.649107e+000	1.386961e-003
1.509999999999996e+001	7.749106e+000	1.386961e-003
1.519999999999996e+001	7.849106e+000	1.386961e-003
1.529999999999996e+001	7.949106e+000	1.386961e-003
1.539999999999996e+001	8.049107e+000	1.386961e-003
1.549999999999996e+001	8.149106e+000	1.386961e-003
1.559999999999996e+001	8.249106e+000	1.386961e-003
1.569999999999996e+001	8.349107e+000	1.386961e-003
1.579999999999996e+001	8.449106e+000	1.386961e-003
1.589999999999996e+001	8.549107e+000	1.386961e-003
1.599999999999996e+001	8.649106e+000	1.386961e-003
1.609999999999996e+001	8.749106e+000	1.386961e-003
1.619999999999996e+001	8.849107e+000	1.386961e-003
1.629999999999996e+001	8.949106e+000	1.386961e-003
1.639999999999996e+001	9.049107e+000	1.386961e-003
1.649999999999996e+001	9.149106e+000	1.386961e-003
1.659999999999997e+001	9.249106e+000	1.386961e-003
1.669999999999997e+001	9.349107e+000	1.386961e-003
1.679999999999997e+001	9.449106e+000	1.386961e-003
1.689999999999997e+001	9.549107e+000	1.386961e-003
1.699999999999997e+001	9.649106e+000	1.386961e-003
1.709999999999997e+001	9.749106e+000	1.386961e-003
1.719999999999997e+001	9.849107e+000	1.386961e-003
1.729999999999998e+001	9.949106e+000	1.386961e-003
1.739999999999998e+001	1.004911e+001	1.386961e-003
1.749999999999998e+001	1.014911e+001	1.386961e-003
1.759999999999998e+001	1.024911e+001	1.386961e-003
1.769999999999998e+001	1.034911e+001	1.386961e-003
1.779999999999998e+001	1.044911e+001	1.386961e-003
1.789999999999998e+001	1.054911e+001	1.386961e-003
1.799999999999999e+001	1.064911e+001	1.386961e-003
1.809999999999999e+001	1.074911e+001	1.386961e-003
1.819999999999999e+001	1.084911e+001	1.386961e-003
1.829999999999999e+001	1.094911e+001	1.386961e-003
1.839999999999999e+001	1.104911e+001	1.386961e-003
1.849999999999999e+001	1.114911e+001	1.386961e-003
1.859999999999999e+001	1.124911e+001	1.386961e-003
1.870000000000000e+001	1.134911e+001	1.386961e-003
1.880000000000000e+001	1.144911e+001	1.386961e-003
1.890000000000000e+001	1.154911e+001	1.386961e-003
1.900000000000000e+001	1.164911e+001	1.386961e-003
1.910000000000000e+001	1.174911e+001	1.386961e-003
1.920000000000000e+001	1.184911e+001	1.386961e-003
1.930000000000000e+001	1.194911e+001	1.386961e-003
1.940000000000001e+001	1.204911e+001	1.386961e-003
1.950000000000001e+001	1.214911e+001	1.386961e-003
1.960000000000001e+001	1.224911e+001	1.386961e-003
1.970000000000001e+001	1.234911e+001	1.386961e-003
1.980000000000001e+001	1.244911e+001	1.386961e-003
1.990000000000001e+001	1.254911e+001	1.386961e-003
2.000000000000000e+001	1.264911e+001	1.386961e-003
