time	V(vd)	V(n001)	I(D1)
0.000000000000000e+000	0.000000e+000	0.000000e+000	0.000000e+000
4.681142774996619e-010	1.143082e-004	1.470642e-002	1.416718e-006
9.362285549993238e-010	4.210285e-004	2.941243e-002	2.814691e-006
1.404342832498986e-009	9.201609e-004	4.411804e-002	4.193919e-006
1.872457109998648e-009	1.611705e-003	5.882325e-002	5.554403e-006
2.340571387498310e-009	2.495662e-003	7.352805e-002	6.896142e-006
2.808685664997972e-009	3.572031e-003	8.823244e-002	8.219137e-006
3.276799942497632e-009	4.840812e-003	1.029364e-001	9.523387e-006
6.324001156992555e-009	1.653735e-002	1.986221e-001	1.767607e-005
1.072190339367712e-008	4.370263e-002	3.365838e-001	2.842806e-005
1.720507449489588e-008	1.022922e-001	5.394612e-001	4.241769e-005
2.591769588347538e-008	2.019773e-001	8.106345e-001	5.901971e-005
3.768685243805152e-008	3.280223e-001	1.172934e+000	8.185673e-005
5.195632742151355e-008	4.237816e-001	1.603419e+000	1.142569e-004
6.509319942406782e-008	4.642211e-001	1.988426e+000	1.475275e-004
8.317616552139766e-008	4.900630e-001	2.495723e+000	1.938639e-004
1.031761655213977e-007	5.073280e-001	3.019061e+000	2.427129e-004
1.231761655213977e-007	5.188781e-001	3.494787e+000	2.876014e-004
1.431761655213976e-007	5.271682e-001	3.915398e+000	3.274684e-004
1.631761655213976e-007	5.332575e-001	4.274261e+000	3.615737e-004
1.831761655213976e-007	5.378028e-001	4.565717e+000	3.893147e-004
2.031761655213976e-007	5.411870e-001	4.785168e+000	4.102068e-004
2.231761655213976e-007	5.435879e-001	4.929154e+000	4.238974e-004
2.431761655213976e-007	5.451110e-001	4.995405e+000	4.302243e-004
2.624623936633296e-007	5.457844e-001	4.984679e+000	4.291215e-004
2.824623936633297e-007	5.456813e-001	4.896354e+000	4.205218e-004
3.024623936633297e-007	5.447726e-001	4.730809e+000	4.046012e-004
3.224623936633297e-007	5.430161e-001	4.490657e+000	3.815480e-004
3.424623936633297e-007	5.403409e-001	4.179685e+000	3.517354e-004
3.624623936633297e-007	5.366276e-001	3.802797e+000	3.156493e-004
3.824623936633298e-007	5.316845e-001	3.365936e+000	2.738833e-004
4.024623936633298e-007	5.252002e-001	2.875993e+000	2.271340e-004
4.224623936633298e-007	5.166436e-001	2.340693e+000	1.762010e-004
4.424623936633298e-007	5.050220e-001	1.768479e+000	1.219998e-004
4.624623936633298e-007	4.879532e-001	1.168376e+000	6.562681e-005
4.824623936633298e-007	4.571414e-001	5.498458e-001	8.805534e-006
5.024623936633298e-007	3.623977e-001	-7.735530e-002	-4.264553e-005
5.224623936633299e-007	1.109750e-001	-7.033365e-001	-7.878038e-005
5.424623936633299e-007	-3.316996e-001	-1.318226e+000	-9.527431e-005
5.624623936633299e-007	-9.081267e-001	-1.912326e+000	-9.675843e-005
5.824623936633299e-007	-1.542556e+000	-2.476267e+000	-8.969477e-005
6.024623936633299e-007	-2.177340e+000	-3.001156e+000	-7.882713e-005
6.224623936633300e-007	-2.773064e+000	-3.478715e+000	-6.717168e-005
6.424623936633300e-007	-3.308159e+000	-3.901413e+000	-5.609266e-005
6.624623936633300e-007	-3.772654e+000	-4.262583e+000	-4.592056e-005
6.824623936633300e-007	-4.162111e+000	-4.556530e+000	-3.653466e-005
7.024623936633300e-007	-4.474115e+000	-4.778617e+000	-2.771997e-005
7.224623936633301e-007	-4.707066e+000	-4.925344e+000	-1.929605e-005
7.424623936633301e-007	-4.860227e+000	-4.994393e+000	-1.113608e-005
7.621966411298988e-007	-4.932235e+000	-4.985325e+000	-3.271548e-006
7.821966411298989e-007	-4.925491e+000	-4.898038e+000	4.540301e-006
8.021966411298989e-007	-4.840577e+000	-4.733505e+000	1.221049e-005
8.221966411298989e-007	-4.679899e+000	-4.494322e+000	1.974716e-005
8.421966411298989e-007	-4.447337e+000	-4.184262e+000	2.715529e-005
8.621966411298989e-007	-4.147908e+000	-3.808212e+000	3.444923e-005
8.821966411298990e-007	-3.787620e+000	-3.372105e+000	4.164217e-005
9.021966411298990e-007	-3.373494e+000	-2.882818e+000	4.875072e-005
9.221966411298990e-007	-2.913582e+000	-2.348067e+000	5.581034e-005
9.421966411298990e-007	-2.416928e+000	-1.776286e+000	6.288363e-005
9.621966411298989e-007	-1.893600e+000	-1.176492e+000	7.007599e-005
9.821966411298990e-007	-1.354840e+000	-5.581433e-001	7.756447e-005
1.002196641129899e-006	-8.134887e-001	6.900732e-002	8.565366e-005
1.022196641129899e-006	-2.855722e-001	6.950697e-001	9.494276e-005
1.042196641129899e-006	1.535753e-001	1.310170e+000	1.117903e-004
1.062196641129899e-006	4.008090e-001	1.904609e+000	1.452762e-004
1.082196641129899e-006	4.825267e-001	2.469011e+000	1.919324e-004
1.102196641129899e-006	5.054866e-001	2.994474e+000	2.405197e-004
1.122196641129899e-006	5.180754e-001	3.472714e+000	2.855383e-004
1.142196641129899e-006	5.266092e-001	3.896186e+000	3.256595e-004
1.162196641129899e-006	5.328892e-001	4.258214e+000	3.600580e-004
1.182196641129899e-006	5.375769e-001	4.553086e+000	3.881152e-004
1.202196641129899e-006	5.410366e-001	4.776154e+000	4.093499e-004
1.222196641129899e-006	5.434907e-001	4.923899e+000	4.233987e-004
1.242196641129899e-006	5.450505e-001	4.993991e+000	4.300347e-004
1.262097671931590e-006	5.457731e-001	4.985562e+000	4.291493e-004
1.282097671931590e-006	5.456911e-001	4.898662e+000	4.207441e-004
1.302097671931591e-006	5.447972e-001	4.734506e+000	4.049563e-004
1.322097671931591e-006	5.430564e-001	4.495684e+000	3.820301e-004
1.342097671931591e-006	5.403986e-001	4.185963e+000	3.523369e-004
1.362097671931591e-006	5.367056e-001	3.810226e+000	3.163602e-004
1.382097671931591e-006	5.317873e-001	3.374400e+000	2.746918e-004
1.402097671931591e-006	5.253350e-001	2.885358e+000	2.280266e-004
1.422097671931591e-006	5.168230e-001	2.350812e+000	1.771621e-004
1.442097671931591e-006	5.052711e-001	1.779192e+000	1.230114e-004
1.462097671931591e-006	4.883380e-001	1.179513e+000	6.666625e-005
1.482097671931591e-006	4.579585e-001	5.612330e-001	9.826483e-006
1.502097671931591e-006	3.651030e-001	-6.589840e-002	-4.180180e-005
1.522097671931591e-006	1.172398e-001	-6.919905e-001	-7.829215e-005
1.542097671931591e-006	-3.222555e-001	-1.307170e+000	-9.512200e-005
1.562097671931591e-006	-8.969716e-001	-1.901734e+000	-9.681692e-005
1.582097671931591e-006	-1.530867e+000	-2.466306e+000	-8.986596e-005
1.602097671931591e-006	-2.166036e+000	-2.991984e+000	-7.903742e-005
1.622097671931591e-006	-2.762704e+000	-3.470476e+000	-6.738080e-005
1.642097671931591e-006	-3.299016e+000	-3.894237e+000	-5.628637e-005
1.662097671931591e-006	-3.764847e+000	-4.256583e+000	-4.609828e-005
1.682097671931591e-006	-4.155697e+000	-4.551800e+000	-3.670004e-005
1.702097671931591e-006	-4.469130e+000	-4.775233e+000	-2.787674e-005
1.722097671931591e-006	-4.703534e+000	-4.923358e+000	-1.944697e-005
1.742097671931591e-006	-4.857931e+000	-4.993838e+000	-1.128330e-005
1.762060811234541e-006	-4.931780e+000	-4.985650e+000	-3.325272e-006
1.782060811234541e-006	-4.925805e+000	-4.898893e+000	4.487935e-006
1.802060811234541e-006	-4.841413e+000	-4.734878e+000	1.215891e-005
1.822060811234541e-006	-4.681237e+000	-4.496191e+000	1.969638e-005
1.842060811234541e-006	-4.449148e+000	-4.186596e+000	2.710531e-005
1.862060811234541e-006	-4.150154e+000	-3.810976e+000	3.440001e-005
1.882060811234541e-006	-3.790257e+000	-3.375255e+000	4.159362e-005
1.902060811234541e-006	-3.376470e+000	-2.886304e+000	4.870266e-005
1.922060811234541e-006	-2.916840e+000	-2.351834e+000	5.576244e-005
1.942060811234540e-006	-2.420403e+000	-1.780274e+000	6.283534e-005
1.962060811234540e-006	-1.897219e+000	-1.180639e+000	7.002641e-005
1.982060811234540e-006	-1.358513e+000	-5.623837e-001	7.749619e-005
2.000000000000000e-006	-8.701854e-001	-1.133108e-014	8.448410e-005
