time	V(vd)	V(n001)	I(D1)
0.000000000000000e+000	0.000000e+000	0.000000e+000	0.000000e+000
1.872457149649470e-011	2.005313e-005	5.883630e-002	5.711275e-006
3.744914299298940e-011	7.332948e-005	1.176467e-001	1.141461e-005
5.617371448948410e-011	1.598290e-004	1.764311e-001	1.711000e-005
7.489828598597880e-011	2.795518e-004	2.351896e-001	2.279744e-005
9.362285748247350e-011	4.324978e-004	2.939222e-001	2.847695e-005
1.123474289789682e-010	6.186670e-004	3.526288e-001	3.414851e-005
1.310720004754629e-010	8.380594e-004	4.113095e-001	3.981213e-005
2.621440009509257e-010	3.134647e-003	8.198310e-001	7.906735e-005
4.621440009509258e-010	8.822801e-003	1.431551e+000	1.375811e-004
6.621440009509258e-010	1.708997e-002	2.020695e+000	1.937514e-004
8.621440009509258e-010	2.802069e-002	2.577971e+000	2.465814e-004
1.062144000950926e-009	4.139229e-002	3.094591e+000	2.952427e-004
1.262144000950926e-009	5.693875e-002	3.562408e+000	3.389733e-004
1.462144000950926e-009	7.435665e-002	3.974043e+000	3.770893e-004
1.662144000950926e-009	9.331173e-002	4.323005e+000	4.089952e-004
1.862144000950926e-009	1.134455e-001	4.603791e+000	4.341937e-004
2.062144000950926e-009	1.343814e-001	4.811973e+000	4.522931e-004
2.262144000950926e-009	1.557357e-001	4.944266e+000	4.632625e-004
2.435927383905708e-009	1.743276e-001	4.995949e+000	4.665373e-004
2.626174522379971e-009	1.943726e-001	4.984296e+000	4.632264e-004
2.826174522379971e-009	2.147513e-001	4.895364e+000	4.525546e-004
3.026174522379972e-009	2.340585e-001	4.729230e+000	4.346143e-004
3.226174522379972e-009	2.519412e-001	4.488513e+000	4.095998e-004
3.426174522379972e-009	2.681033e-001	4.177010e+000	3.779070e-004
3.626174522379972e-009	2.823187e-001	3.799632e+000	3.400329e-004
3.826174522379972e-009	2.944430e-001	3.362333e+000	2.965671e-004
4.026174522379972e-009	3.044112e-001	2.872007e+000	2.481827e-004
4.226174522379972e-009	3.122219e-001	2.336387e+000	1.956277e-004
4.426174522379972e-009	3.179131e-001	1.763922e+000	1.397152e-004
4.626174522379973e-009	3.215356e-001	1.163639e+000	8.131330e-005
4.826174522379973e-009	3.231311e-001	5.450038e-001	2.133355e-005
5.026174522379973e-009	3.227181e-001	-8.222598e-002	-3.928238e-005
5.226174522379973e-009	3.202835e-001	-7.081590e-001	-9.957665e-005
5.426174522379973e-009	3.157842e-001	-1.322924e+000	-1.585904e-004
5.626174522379973e-009	3.091547e-001	-1.916826e+000	-2.153799e-004
5.826174522379973e-009	3.003237e-001	-2.480498e+000	-2.690322e-004
6.026174522379974e-009	2.892392e-001	-3.005051e+000	-3.186829e-004
6.226174522379974e-009	2.758964e-001	-3.482213e+000	-3.635313e-004
6.426174522379974e-009	2.603626e-001	-3.904458e+000	-4.028564e-004
6.626174522379974e-009	2.427914e-001	-4.265128e+000	-4.360291e-004
6.826174522379974e-009	2.234199e-001	-4.558534e+000	-4.625222e-004
7.026174522379974e-009	2.025535e-001	-4.780049e+000	-4.819180e-004
7.226174522379974e-009	1.805439e-001	-4.926180e+000	-4.939127e-004
7.426174522379975e-009	1.577711e-001	-4.994622e+000	-4.983552e-004
7.622543805396831e-009	1.350463e-001	-4.985186e+000	-4.952364e-004
7.822543805396831e-009	1.119231e-001	-4.897673e+000	-4.844938e-004
8.022543805396831e-009	8.921675e-002	-4.732921e+000	-4.663570e-004
8.222543805396831e-009	6.731769e-002	-4.493527e+000	-4.410804e-004
8.422543805396831e-009	4.660638e-002	-4.183268e+000	-4.090661e-004
8.622543805396831e-009	2.744628e-002	-3.807037e+000	-3.708226e-004
8.822543805396832e-009	1.017716e-002	-3.370766e+000	-3.269566e-004
9.022543805396832e-009	-4.891996e-003	-2.881336e+000	-2.781634e-004
9.222543805396832e-009	-1.748992e-002	-2.346466e+000	-2.252159e-004
9.422543805396832e-009	-2.738952e-002	-1.774590e+000	-1.689517e-004
9.622543805396832e-009	-3.441354e-002	-1.174729e+000	-1.102604e-004
9.822543805396832e-009	-3.843895e-002	-5.563406e-001	-5.006859e-005
1.002254380539683e-008	-3.940013e-002	7.082108e-002	1.067415e-005
1.022254380539683e-008	-3.729052e-002	6.968659e-001	7.101076e-005
1.042254380539683e-008	-3.216275e-002	1.311921e+000	1.299915e-004
1.062254380539683e-008	-2.412712e-002	1.906286e+000	1.866892e-004
1.082254380539683e-008	-1.334876e-002	2.470588e+000	2.402133e-004
1.102254380539683e-008	-4.325880e-005	2.995927e+000	2.897242e-004
1.122254380539683e-008	1.552872e-002	3.474019e+000	3.344460e-004
1.142254380539683e-008	3.306787e-002	3.897323e+000	3.736786e-004
1.162254380539683e-008	5.224317e-002	4.259164e+000	4.068087e-004
1.182254380539683e-008	7.269919e-002	4.553835e+000	4.333187e-004
1.202254380539683e-008	9.406331e-002	4.776690e+000	4.527956e-004
1.222254380539683e-008	1.159525e-001	4.924214e+000	4.649366e-004
1.242254380539683e-008	1.379802e-001	4.994080e+000	4.695673e-004
1.262119175875676e-008	1.596144e-001	4.985511e+000	4.666382e-004
1.282119175875676e-008	1.807729e-001	4.898526e+000	4.561593e-004
1.302119175875676e-008	2.009455e-001	4.734289e+000	4.383182e-004
1.322119175875676e-008	2.197920e-001	4.495389e+000	4.133858e-004
1.342119175875677e-008	2.370088e-001	4.185593e+000	3.817558e-004
1.362119175875677e-008	2.523421e-001	3.809789e+000	3.439252e-004
1.382119175875677e-008	2.655996e-001	3.373902e+000	3.004859e-004
1.402119175875677e-008	2.766556e-001	2.884806e+000	2.521149e-004
1.422119175875677e-008	2.854457e-001	2.350216e+000	1.995643e-004
1.442119175875677e-008	2.919529e-001	1.778561e+000	1.436509e-004
1.462119175875677e-008	2.961871e-001	1.178857e+000	8.524579e-005
1.482119175875677e-008	2.981653e-001	5.605617e-001	2.526176e-005
1.502119175875677e-008	2.978958e-001	-6.657390e-002	-3.535899e-005
1.522119175875676e-008	2.953703e-001	-6.926596e-001	-9.565918e-005
1.542119175875676e-008	2.905635e-001	-1.307822e+000	-1.546815e-004
1.562119175875676e-008	2.834424e-001	-1.902358e+000	-2.114847e-004
1.582119175875676e-008	2.739831e-001	-2.466894e+000	-2.651596e-004
1.602119175875676e-008	2.621914e-001	-2.992525e+000	-3.148458e-004
1.622119175875676e-008	2.481238e-001	-3.470963e+000	-3.597472e-004
1.642119175875676e-008	2.319018e-001	-3.894660e+000	-3.991460e-004
1.662119175875675e-008	2.137158e-001	-4.256938e+000	-4.324143e-004
1.682119175875675e-008	1.938186e-001	-4.552080e+000	-4.590243e-004
1.702119175875675e-008	1.725126e-001	-4.775434e+000	-4.785551e-004
1.722119175875675e-008	1.501363e-001	-4.923476e+000	-4.906990e-004
1.742119175875675e-008	1.270522e-001	-4.993872e+000	-4.952703e-004
1.762068820458130e-008	1.036969e-001	-4.985631e+000	-4.922059e-004
1.782068820458130e-008	8.033901e-002	-4.898843e+000	-4.815405e-004
1.802068820458129e-008	5.742790e-002	-4.734797e+000	-4.634522e-004
1.822068820458129e-008	3.535188e-002	-4.496081e+000	-4.382239e-004
1.842068820458129e-008	1.449085e-002	-4.186459e+000	-4.062566e-004
1.862068820458129e-008	-4.790782e-003	-3.810813e+000	-3.680580e-004
1.882068820458129e-008	-2.215161e-002	-3.375069e+000	-3.242340e-004
1.902068820458129e-008	-3.728076e-002	-2.886098e+000	-2.754794e-004
1.922068820458128e-008	-4.990514e-002	-2.351612e+000	-2.225664e-004
1.942068820458128e-008	-5.979610e-002	-1.780039e+000	-1.663324e-004
1.962068820458128e-008	-6.677516e-002	-1.180394e+000	-1.076664e-004
1.982068820458128e-008	-7.079941e-002	-5.621336e-001	-4.750187e-005
2.000000000000000e-008	-7.239939e-002	-2.449294e-015	7.029194e-006
