vin	V(be)	Ic(Q1)
0.000000000000000e+000	0.000000e+000	1.369983e-013
5.000000000000000e-003	5.000000e-003	1.348186e-013
1.000000000000000e-002	1.000000e-002	1.333411e-013
1.500000000000000e-002	1.500000e-002	1.326635e-013
2.000000000000000e-002	2.000000e-002	1.329900e-013
2.500000000000000e-002	2.500000e-002	1.345574e-013
3.000000000000000e-002	3.000000e-002	1.376513e-013
3.500000000000000e-002	3.500000e-002	1.425820e-013
4.000000000000000e-002	4.000000e-002	1.498148e-013
4.500000000000000e-002	4.500000e-002	1.598150e-013
5.000000000000000e-002	5.000000e-002	1.732356e-013
5.499999999999999e-002	5.500000e-002	1.908114e-013
5.999999999999999e-002	6.000000e-002	2.134975e-013
6.499999999999999e-002	6.500000e-002	2.424123e-013
6.999999999999999e-002	7.000000e-002	2.789354e-013
7.500000000000000e-002	7.500000e-002	3.247239e-013
8.000000000000000e-002	8.000000e-002	3.818596e-013
8.500000000000001e-002	8.500000e-002	4.528404e-013
9.000000000000001e-002	9.000000e-002	5.406541e-013
9.500000000000002e-002	9.500000e-002	6.490723e-013
1.000000000000000e-001	1.000000e-001	7.825603e-013
1.050000000000000e-001	1.050000e-001	9.465794e-013
1.100000000000000e-001	1.100000e-001	1.147856e-012
1.150000000000000e-001	1.150000e-001	1.394481e-012
1.200000000000000e-001	1.200000e-001	1.696323e-012
1.250000000000000e-001	1.250000e-001	2.065407e-012
1.300000000000000e-001	1.300000e-001	2.516312e-012
1.350000000000000e-001	1.350000e-001	3.066803e-012
1.400000000000000e-001	1.400000e-001	3.738488e-012
1.450000000000001e-001	1.450000e-001	4.557588e-012
1.500000000000001e-001	1.500000e-001	5.555972e-012
1.550000000000001e-001	1.550000e-001	6.772401e-012
1.600000000000001e-001	1.600000e-001	8.253912e-012
1.650000000000001e-001	1.650000e-001	1.005771e-011
1.700000000000001e-001	1.700000e-001	1.225323e-011
1.750000000000001e-001	1.750000e-001	1.492479e-011
1.800000000000001e-001	1.800000e-001	1.817482e-011
1.850000000000001e-001	1.850000e-001	2.212771e-011
1.900000000000001e-001	1.900000e-001	2.693437e-011
1.950000000000001e-001	1.950000e-001	3.277815e-011
2.000000000000001e-001	2.000000e-001	3.988153e-011
2.050000000000001e-001	2.050000e-001	4.851450e-011
2.100000000000001e-001	2.100000e-001	5.900490e-011
2.150000000000001e-001	2.150000e-001	7.175037e-011
2.200000000000001e-001	2.200000e-001	8.723357e-011
2.250000000000001e-001	2.250000e-001	1.060401e-010
2.300000000000001e-001	2.300000e-001	1.288804e-010
2.350000000000001e-001	2.350000e-001	1.566165e-010
2.400000000000001e-001	2.400000e-001	1.902939e-010
2.450000000000001e-001	2.450000e-001	2.311809e-010
2.500000000000001e-001	2.500000e-001	2.808161e-010
2.550000000000001e-001	2.550000e-001	3.410653e-010
2.600000000000001e-001	2.600000e-001	4.141913e-010
2.650000000000001e-001	2.650000e-001	5.029387e-010
2.700000000000001e-001	2.700000e-001	6.106353e-010
2.750000000000001e-001	2.750000e-001	7.413166e-010
2.800000000000001e-001	2.800000e-001	8.998756e-010
2.850000000000001e-001	2.850000e-001	1.092245e-009
2.900000000000002e-001	2.900000e-001	1.325618e-009
2.950000000000002e-001	2.950000e-001	1.608715e-009
3.000000000000002e-001	3.000000e-001	1.952109e-009
3.050000000000002e-001	3.050000e-001	2.368614e-009
3.100000000000002e-001	3.100000e-001	2.873768e-009
3.150000000000002e-001	3.150000e-001	3.486402e-009
3.200000000000002e-001	3.200000e-001	4.229344e-009
3.250000000000002e-001	3.250000e-001	5.130259e-009
3.300000000000002e-001	3.300000e-001	6.222685e-009
3.350000000000002e-001	3.350000e-001	7.547263e-009
3.400000000000002e-001	3.400000e-001	9.153253e-009
3.450000000000002e-001	3.450000e-001	1.110035e-008
3.500000000000002e-001	3.500000e-001	1.346091e-008
3.550000000000002e-001	3.550000e-001	1.632259e-008
3.600000000000002e-001	3.600000e-001	1.979165e-008
3.650000000000002e-001	3.650000e-001	2.399682e-008
3.700000000000002e-001	3.700000e-001	2.909412e-008
3.750000000000002e-001	3.750000e-001	3.527258e-008
3.800000000000002e-001	3.800000e-001	4.276125e-008
3.850000000000002e-001	3.850000e-001	5.183768e-008
3.900000000000002e-001	3.900000e-001	6.283814e-008
3.950000000000002e-001	3.950000e-001	7.617007e-008
4.000000000000002e-001	4.000000e-001	9.232712e-008
4.050000000000003e-001	4.050000e-001	1.119074e-007
4.100000000000003e-001	4.100000e-001	1.356354e-007
4.150000000000003e-001	4.150000e-001	1.643891e-007
4.200000000000003e-001	4.200000e-001	1.992320e-007
4.250000000000003e-001	4.250000e-001	2.414525e-007
4.300000000000003e-001	4.300000e-001	2.926115e-007
4.350000000000003e-001	4.350000e-001	3.545998e-007
4.400000000000003e-001	4.400000e-001	4.297080e-007
4.450000000000003e-001	4.450000e-001	5.207110e-007
4.500000000000003e-001	4.500000e-001	6.309699e-007
4.550000000000003e-001	4.550000e-001	7.645564e-007
4.600000000000003e-001	4.600000e-001	9.264025e-007
4.650000000000003e-001	4.650000e-001	1.122482e-006
4.700000000000003e-001	4.700000e-001	1.360032e-006
4.750000000000003e-001	4.750000e-001	1.647815e-006
4.800000000000003e-001	4.800000e-001	1.996449e-006
4.850000000000003e-001	4.850000e-001	2.418790e-006
4.900000000000003e-001	4.900000e-001	2.930410e-006
4.950000000000003e-001	4.950000e-001	3.550169e-006
5.000000000000003e-001	5.000000e-001	4.300904e-006
5.050000000000003e-001	5.050000e-001	5.210275e-006
5.100000000000003e-001	5.100000e-001	6.311772e-006
5.150000000000004e-001	5.150000e-001	7.645948e-006
5.200000000000004e-001	5.200000e-001	9.261902e-006
5.250000000000004e-001	5.250000e-001	1.121908e-005
5.300000000000004e-001	5.300000e-001	1.358943e-005
5.350000000000004e-001	5.350000e-001	1.646006e-005
5.400000000000004e-001	5.400000e-001	1.993637e-005
5.450000000000004e-001	5.450000e-001	2.414590e-005
5.500000000000004e-001	5.500000e-001	2.924294e-005
5.550000000000004e-001	5.550000e-001	3.541410e-005
5.600000000000004e-001	5.600000e-001	4.288501e-005
5.650000000000004e-001	5.650000e-001	5.192837e-005
5.700000000000004e-001	5.700000e-001	6.287365e-005
5.750000000000004e-001	5.750000e-001	7.611864e-005
5.800000000000004e-001	5.800000e-001	9.214341e-005
5.850000000000004e-001	5.850000e-001	1.115268e-004
5.900000000000004e-001	5.900000e-001	1.349661e-004
5.950000000000004e-001	5.950000e-001	1.633003e-004
6.000000000000004e-001	6.000000e-001	1.975379e-004
6.050000000000004e-001	6.050000e-001	2.388883e-004
6.100000000000004e-001	6.100000e-001	2.887998e-004
6.150000000000004e-001	6.150000e-001	3.490023e-004
6.200000000000004e-001	6.200000e-001	4.215558e-004
6.250000000000004e-001	6.250000e-001	5.089050e-004
6.300000000000005e-001	6.300000e-001	6.139386e-004
6.350000000000005e-001	6.350000e-001	7.400523e-004
6.400000000000005e-001	6.400000e-001	8.912124e-004
6.450000000000005e-001	6.450000e-001	1.072017e-003
6.500000000000005e-001	6.500000e-001	1.287745e-003
6.550000000000005e-001	6.550000e-001	1.544391e-003
6.600000000000005e-001	6.600000e-001	1.848667e-003
6.650000000000005e-001	6.650000e-001	2.207954e-003
6.700000000000005e-001	6.700000e-001	2.630199e-003
6.750000000000005e-001	6.750000e-001	3.123722e-003
6.800000000000005e-001	6.800000e-001	3.696916e-003
6.850000000000005e-001	6.850000e-001	4.357832e-003
6.900000000000005e-001	6.900000e-001	5.113628e-003
6.950000000000005e-001	6.950000e-001	5.969892e-003
7.000000000000000e-001	7.000000e-001	6.929866e-003
