vdd	V(ds)	Id(M1)
0.000000000000000e+000	0.000000e+000	-4.093973e-031
2.000000000000000e-002	2.000000e-002	3.388700e-005
4.000000000000000e-002	4.000000e-002	6.736321e-005
6.000000000000000e-002	6.000000e-002	1.004266e-004
8.000000000000000e-002	8.000000e-002	1.330753e-004
1.000000000000000e-001	1.000000e-001	1.653071e-004
1.200000000000000e-001	1.200000e-001	1.971200e-004
1.400000000000000e-001	1.400000e-001	2.285120e-004
1.600000000000000e-001	1.600000e-001	2.594811e-004
1.800000000000000e-001	1.800000e-001	2.900250e-004
2.000000000000000e-001	2.000000e-001	3.201418e-004
2.200000000000000e-001	2.200000e-001	3.498295e-004
2.400000000000000e-001	2.400000e-001	3.790857e-004
2.600000000000000e-001	2.600000e-001	4.079086e-004
2.800000000000000e-001	2.800000e-001	4.362959e-004
3.000000000000000e-001	3.000000e-001	4.642456e-004
3.200000000000000e-001	3.200000e-001	4.917555e-004
3.400000000000000e-001	3.400000e-001	5.188235e-004
3.600000000000000e-001	3.600000e-001	5.454475e-004
3.800000000000001e-001	3.800000e-001	5.716252e-004
4.000000000000001e-001	4.000000e-001	5.973547e-004
4.200000000000001e-001	4.200000e-001	6.226337e-004
4.400000000000001e-001	4.400000e-001	6.474601e-004
4.600000000000001e-001	4.600000e-001	6.718318e-004
4.800000000000002e-001	4.800000e-001	6.957465e-004
5.000000000000001e-001	5.000000e-001	7.192022e-004
5.200000000000001e-001	5.200000e-001	7.421966e-004
5.400000000000002e-001	5.400000e-001	7.647277e-004
5.600000000000002e-001	5.600000e-001	7.867932e-004
5.800000000000002e-001	5.800000e-001	8.083910e-004
6.000000000000002e-001	6.000000e-001	8.295189e-004
6.200000000000002e-001	6.200000e-001	8.501748e-004
6.400000000000002e-001	6.400000e-001	8.703566e-004
6.600000000000003e-001	6.600000e-001	8.900620e-004
6.800000000000003e-001	6.800000e-001	9.092889e-004
7.000000000000003e-001	7.000000e-001	9.280351e-004
7.200000000000003e-001	7.200000e-001	9.462985e-004
7.400000000000003e-001	7.400000e-001	9.640770e-004
7.600000000000003e-001	7.600000e-001	9.813684e-004
7.800000000000004e-001	7.800000e-001	9.981705e-004
8.000000000000004e-001	8.000000e-001	1.014481e-003
8.200000000000004e-001	8.200000e-001	1.030298e-003
8.400000000000004e-001	8.400000e-001	1.045620e-003
8.600000000000004e-001	8.600000e-001	1.060444e-003
8.800000000000005e-001	8.800000e-001	1.074767e-003
9.000000000000005e-001	9.000000e-001	1.088589e-003
9.200000000000005e-001	9.200000e-001	1.101907e-003
9.400000000000005e-001	9.400000e-001	1.114718e-003
9.600000000000005e-001	9.600000e-001	1.127021e-003
9.800000000000005e-001	9.800000e-001	1.138813e-003
1.000000000000000e+000	1.000000e+000	1.150093e-003
1.020000000000001e+000	1.020000e+000	1.160859e-003
1.040000000000001e+000	1.040000e+000	1.171107e-003
1.060000000000001e+000	1.060000e+000	1.180837e-003
1.080000000000001e+000	1.080000e+000	1.190045e-003
1.100000000000001e+000	1.100000e+000	1.198731e-003
1.120000000000001e+000	1.120000e+000	1.206892e-003
1.140000000000001e+000	1.140000e+000	1.214526e-003
1.160000000000001e+000	1.160000e+000	1.221631e-003
1.180000000000001e+000	1.180000e+000	1.228205e-003
1.200000000000001e+000	1.200000e+000	1.234245e-003
1.220000000000001e+000	1.220000e+000	1.239751e-003
1.240000000000001e+000	1.240000e+000	1.244719e-003
1.260000000000001e+000	1.260000e+000	1.249149e-003
1.280000000000001e+000	1.280000e+000	1.253037e-003
1.300000000000001e+000	1.300000e+000	1.256382e-003
1.320000000000001e+000	1.320000e+000	1.259183e-003
1.340000000000001e+000	1.340000e+000	1.261436e-003
1.360000000000001e+000	1.360000e+000	1.263141e-003
1.380000000000001e+000	1.380000e+000	1.264294e-003
1.400000000000001e+000	1.400000e+000	1.264896e-003
1.420000000000001e+000	1.420000e+000	1.264993e-003
1.440000000000001e+000	1.440000e+000	1.265001e-003
1.460000000000001e+000	1.460000e+000	1.265008e-003
1.480000000000001e+000	1.480000e+000	1.265016e-003
1.500000000000001e+000	1.500000e+000	1.265023e-003
1.520000000000001e+000	1.520000e+000	1.265031e-003
1.540000000000001e+000	1.540000e+000	1.265038e-003
1.560000000000001e+000	1.560000e+000	1.265045e-003
1.580000000000001e+000	1.580000e+000	1.265053e-003
1.600000000000001e+000	1.600000e+000	1.265060e-003
1.620000000000001e+000	1.620000e+000	1.265068e-003
1.640000000000001e+000	1.640000e+000	1.265075e-003
1.660000000000001e+000	1.660000e+000	1.265083e-003
1.680000000000001e+000	1.680000e+000	1.265090e-003
1.700000000000001e+000	1.700000e+000	1.265098e-003
1.720000000000001e+000	1.720000e+000	1.265105e-003
1.740000000000001e+000	1.740000e+000	1.265113e-003
1.760000000000001e+000	1.760000e+000	1.265120e-003
1.780000000000001e+000	1.780000e+000	1.265127e-003
1.800000000000001e+000	1.800000e+000	1.265135e-003
1.820000000000001e+000	1.820000e+000	1.265142e-003
1.840000000000001e+000	1.840000e+000	1.265150e-003
1.860000000000001e+000	1.860000e+000	1.265157e-003
1.880000000000001e+000	1.880000e+000	1.265165e-003
1.900000000000001e+000	1.900000e+000	1.265172e-003
1.920000000000001e+000	1.920000e+000	1.265180e-003
1.940000000000001e+000	1.940000e+000	1.265187e-003
1.960000000000001e+000	1.960000e+000	1.265194e-003
1.980000000000001e+000	1.980000e+000	1.265202e-003
2.000000000000001e+000	2.000000e+000	1.265209e-003
2.020000000000001e+000	2.020000e+000	1.265217e-003
2.040000000000001e+000	2.040000e+000	1.265224e-003
2.060000000000001e+000	2.060000e+000	1.265232e-003
2.080000000000001e+000	2.080000e+000	1.265239e-003
2.100000000000001e+000	2.100000e+000	1.265247e-003
2.120000000000001e+000	2.120000e+000	1.265254e-003
2.140000000000002e+000	2.140000e+000	1.265262e-003
2.160000000000002e+000	2.160000e+000	1.265269e-003
2.180000000000002e+000	2.180000e+000	1.265276e-003
2.200000000000002e+000	2.200000e+000	1.265284e-003
2.220000000000002e+000	2.220000e+000	1.265291e-003
2.240000000000002e+000	2.240000e+000	1.265299e-003
2.260000000000002e+000	2.260000e+000	1.265306e-003
2.280000000000002e+000	2.280000e+000	1.265314e-003
2.300000000000002e+000	2.300000e+000	1.265321e-003
2.320000000000002e+000	2.320000e+000	1.265329e-003
2.340000000000002e+000	2.340000e+000	1.265336e-003
2.360000000000002e+000	2.360000e+000	1.265344e-003
2.380000000000002e+000	2.380000e+000	1.265351e-003
2.400000000000002e+000	2.400000e+000	1.265359e-003
2.420000000000002e+000	2.420000e+000	1.265366e-003
2.440000000000002e+000	2.440000e+000	1.265373e-003
2.460000000000002e+000	2.460000e+000	1.265381e-003
2.480000000000002e+000	2.480000e+000	1.265388e-003
2.500000000000002e+000	2.500000e+000	1.265396e-003
2.520000000000002e+000	2.520000e+000	1.265403e-003
2.540000000000002e+000	2.540000e+000	1.265411e-003
2.560000000000002e+000	2.560000e+000	1.265418e-003
2.580000000000002e+000	2.580000e+000	1.265426e-003
2.600000000000002e+000	2.600000e+000	1.265433e-003
2.620000000000002e+000	2.620000e+000	1.265440e-003
2.640000000000002e+000	2.640000e+000	1.265448e-003
2.660000000000002e+000	2.660000e+000	1.265455e-003
2.680000000000002e+000	2.680000e+000	1.265463e-003
2.700000000000002e+000	2.700000e+000	1.265470e-003
2.720000000000002e+000	2.720000e+000	1.265478e-003
2.740000000000002e+000	2.740000e+000	1.265485e-003
2.760000000000002e+000	2.760000e+000	1.265493e-003
2.780000000000002e+000	2.780000e+000	1.265500e-003
2.800000000000002e+000	2.800000e+000	1.265508e-003
2.820000000000002e+000	2.820000e+000	1.265515e-003
2.840000000000002e+000	2.840000e+000	1.265522e-003
2.860000000000002e+000	2.860000e+000	1.265530e-003
2.880000000000002e+000	2.880000e+000	1.265537e-003
2.900000000000002e+000	2.900000e+000	1.265545e-003
2.920000000000002e+000	2.920000e+000	1.265552e-003
2.940000000000002e+000	2.940000e+000	1.265560e-003
2.960000000000002e+000	2.960000e+000	1.265567e-003
2.980000000000002e+000	2.980000e+000	1.265575e-003
3.000000000000002e+000	3.000000e+000	1.265582e-003
3.020000000000002e+000	3.020000e+000	1.265589e-003
3.040000000000002e+000	3.040000e+000	1.265597e-003
3.060000000000002e+000	3.060000e+000	1.265604e-003
3.080000000000002e+000	3.080000e+000	1.265612e-003
3.100000000000002e+000	3.100000e+000	1.265619e-003
3.120000000000002e+000	3.120000e+000	1.265627e-003
3.140000000000002e+000	3.140000e+000	1.265634e-003
3.160000000000002e+000	3.160000e+000	1.265642e-003
3.180000000000002e+000	3.180000e+000	1.265649e-003
3.200000000000002e+000	3.200000e+000	1.265657e-003
3.220000000000002e+000	3.220000e+000	1.265664e-003
3.240000000000002e+000	3.240000e+000	1.265672e-003
3.260000000000003e+000	3.260000e+000	1.265679e-003
3.280000000000003e+000	3.280000e+000	1.265686e-003
3.300000000000003e+000	3.300000e+000	1.265694e-003
3.320000000000003e+000	3.320000e+000	1.265701e-003
3.340000000000003e+000	3.340000e+000	1.265709e-003
3.360000000000003e+000	3.360000e+000	1.265716e-003
3.380000000000003e+000	3.380000e+000	1.265724e-003
3.400000000000003e+000	3.400000e+000	1.265731e-003
3.420000000000003e+000	3.420000e+000	1.265739e-003
3.440000000000003e+000	3.440000e+000	1.265746e-003
3.460000000000003e+000	3.460000e+000	1.265754e-003
3.480000000000003e+000	3.480000e+000	1.265761e-003
3.500000000000003e+000	3.500000e+000	1.265768e-003
3.520000000000003e+000	3.520000e+000	1.265776e-003
3.540000000000003e+000	3.540000e+000	1.265783e-003
3.560000000000003e+000	3.560000e+000	1.265791e-003
3.580000000000003e+000	3.580000e+000	1.265798e-003
3.600000000000003e+000	3.600000e+000	1.265806e-003
3.620000000000003e+000	3.620000e+000	1.265813e-003
3.640000000000003e+000	3.640000e+000	1.265821e-003
3.660000000000003e+000	3.660000e+000	1.265828e-003
3.680000000000003e+000	3.680000e+000	1.265835e-003
3.700000000000003e+000	3.700000e+000	1.265843e-003
3.720000000000003e+000	3.720000e+000	1.265850e-003
3.740000000000003e+000	3.740000e+000	1.265858e-003
3.760000000000003e+000	3.760000e+000	1.265865e-003
3.780000000000003e+000	3.780000e+000	1.265873e-003
3.800000000000003e+000	3.800000e+000	1.265880e-003
3.820000000000003e+000	3.820000e+000	1.265888e-003
3.840000000000003e+000	3.840000e+000	1.265895e-003
3.860000000000003e+000	3.860000e+000	1.265903e-003
3.880000000000003e+000	3.880000e+000	1.265910e-003
3.900000000000003e+000	3.900000e+000	1.265917e-003
3.920000000000003e+000	3.920000e+000	1.265925e-003
3.940000000000003e+000	3.940000e+000	1.265932e-003
3.960000000000003e+000	3.960000e+000	1.265940e-003
3.980000000000003e+000	3.980000e+000	1.265947e-003
4.000000000000003e+000	4.000000e+000	1.265955e-003
4.020000000000002e+000	4.020000e+000	1.265962e-003
4.040000000000002e+000	4.040000e+000	1.265970e-003
4.060000000000001e+000	4.060000e+000	1.265977e-003
4.080000000000001e+000	4.080000e+000	1.265985e-003
4.100000000000001e+000	4.100000e+000	1.265992e-003
4.120000000000000e+000	4.120000e+000	1.266000e-003
4.140000000000000e+000	4.140000e+000	1.266007e-003
4.159999999999999e+000	4.160000e+000	1.266014e-003
4.179999999999999e+000	4.180000e+000	1.266022e-003
4.199999999999998e+000	4.200000e+000	1.266029e-003
4.219999999999998e+000	4.220000e+000	1.266037e-003
4.239999999999998e+000	4.240000e+000	1.266044e-003
4.259999999999997e+000	4.260000e+000	1.266052e-003
4.279999999999997e+000	4.280000e+000	1.266059e-003
4.299999999999996e+000	4.300000e+000	1.266067e-003
4.319999999999996e+000	4.320000e+000	1.266074e-003
4.339999999999995e+000	4.340000e+000	1.266081e-003
4.359999999999995e+000	4.360000e+000	1.266089e-003
4.379999999999995e+000	4.380000e+000	1.266096e-003
4.399999999999994e+000	4.400000e+000	1.266104e-003
4.419999999999994e+000	4.420000e+000	1.266111e-003
4.439999999999993e+000	4.440000e+000	1.266119e-003
4.459999999999993e+000	4.460000e+000	1.266126e-003
4.479999999999992e+000	4.480000e+000	1.266134e-003
4.499999999999992e+000	4.500000e+000	1.266141e-003
4.519999999999992e+000	4.520000e+000	1.266149e-003
4.539999999999991e+000	4.540000e+000	1.266156e-003
4.559999999999991e+000	4.560000e+000	1.266163e-003
4.579999999999990e+000	4.580000e+000	1.266171e-003
4.599999999999990e+000	4.600000e+000	1.266178e-003
4.619999999999989e+000	4.620000e+000	1.266186e-003
4.639999999999989e+000	4.640000e+000	1.266193e-003
4.659999999999989e+000	4.660000e+000	1.266201e-003
4.679999999999988e+000	4.680000e+000	1.266208e-003
4.699999999999988e+000	4.700000e+000	1.266216e-003
4.719999999999987e+000	4.720000e+000	1.266223e-003
4.739999999999987e+000	4.740000e+000	1.266231e-003
4.759999999999987e+000	4.760000e+000	1.266238e-003
4.779999999999986e+000	4.780000e+000	1.266245e-003
4.799999999999986e+000	4.800000e+000	1.266253e-003
4.819999999999985e+000	4.820000e+000	1.266260e-003
4.839999999999985e+000	4.840000e+000	1.266268e-003
4.859999999999984e+000	4.860000e+000	1.266275e-003
4.879999999999984e+000	4.880000e+000	1.266283e-003
4.899999999999984e+000	4.900000e+000	1.266290e-003
4.919999999999983e+000	4.920000e+000	1.266298e-003
4.939999999999983e+000	4.940000e+000	1.266305e-003
4.959999999999982e+000	4.960000e+000	1.266313e-003
4.979999999999982e+000	4.980000e+000	1.266320e-003
4.999999999999981e+000	5.000000e+000	1.266327e-003
5.019999999999981e+000	5.020000e+000	1.266335e-003
5.039999999999981e+000	5.040000e+000	1.266342e-003
5.059999999999980e+000	5.060000e+000	1.266350e-003
5.079999999999980e+000	5.080000e+000	1.266357e-003
5.099999999999979e+000	5.100000e+000	1.266365e-003
5.119999999999979e+000	5.120000e+000	1.266372e-003
5.139999999999978e+000	5.140000e+000	1.266380e-003
5.159999999999978e+000	5.160000e+000	1.266387e-003
5.179999999999978e+000	5.180000e+000	1.266395e-003
5.199999999999977e+000	5.200000e+000	1.266402e-003
5.219999999999977e+000	5.220000e+000	1.266410e-003
5.239999999999976e+000	5.240000e+000	1.266417e-003
5.259999999999976e+000	5.260000e+000	1.266424e-003
5.279999999999975e+000	5.280000e+000	1.266432e-003
5.299999999999975e+000	5.300000e+000	1.266439e-003
5.319999999999975e+000	5.320000e+000	1.266447e-003
5.339999999999974e+000	5.340000e+000	1.266454e-003
5.359999999999974e+000	5.360000e+000	1.266462e-003
5.379999999999973e+000	5.380000e+000	1.266469e-003
5.399999999999973e+000	5.400000e+000	1.266477e-003
5.419999999999972e+000	5.420000e+000	1.266484e-003
5.439999999999972e+000	5.440000e+000	1.266491e-003
5.459999999999972e+000	5.460000e+000	1.266499e-003
5.479999999999971e+000	5.480000e+000	1.266506e-003
5.499999999999971e+000	5.500000e+000	1.266514e-003
5.519999999999970e+000	5.520000e+000	1.266521e-003
5.539999999999970e+000	5.540000e+000	1.266529e-003
5.559999999999969e+000	5.560000e+000	1.266536e-003
5.579999999999969e+000	5.580000e+000	1.266544e-003
5.599999999999969e+000	5.600000e+000	1.266551e-003
5.619999999999968e+000	5.620000e+000	1.266559e-003
5.639999999999968e+000	5.640000e+000	1.266566e-003
5.659999999999967e+000	5.660000e+000	1.266574e-003
5.679999999999967e+000	5.680000e+000	1.266581e-003
5.699999999999966e+000	5.700000e+000	1.266588e-003
5.719999999999966e+000	5.720000e+000	1.266596e-003
5.739999999999966e+000	5.740000e+000	1.266603e-003
5.759999999999965e+000	5.760000e+000	1.266611e-003
5.779999999999965e+000	5.780000e+000	1.266618e-003
5.799999999999964e+000	5.800000e+000	1.266626e-003
5.819999999999964e+000	5.820000e+000	1.266633e-003
5.839999999999963e+000	5.840000e+000	1.266641e-003
5.859999999999963e+000	5.860000e+000	1.266648e-003
5.879999999999963e+000	5.880000e+000	1.266656e-003
5.899999999999962e+000	5.900000e+000	1.266663e-003
5.919999999999962e+000	5.920000e+000	1.266670e-003
5.939999999999961e+000	5.940000e+000	1.266678e-003
5.959999999999961e+000	5.960000e+000	1.266685e-003
5.979999999999961e+000	5.980000e+000	1.266693e-003
5.999999999999960e+000	6.000000e+000	1.266700e-003
6.019999999999960e+000	6.020000e+000	1.266708e-003
6.039999999999959e+000	6.040000e+000	1.266715e-003
6.059999999999959e+000	6.060000e+000	1.266723e-003
6.079999999999958e+000	6.080000e+000	1.266730e-003
6.099999999999958e+000	6.100000e+000	1.266737e-003
6.119999999999958e+000	6.120000e+000	1.266745e-003
6.139999999999957e+000	6.140000e+000	1.266752e-003
6.159999999999957e+000	6.160000e+000	1.266760e-003
6.179999999999956e+000	6.180000e+000	1.266767e-003
6.199999999999956e+000	6.200000e+000	1.266775e-003
6.219999999999955e+000	6.220000e+000	1.266782e-003
6.239999999999955e+000	6.240000e+000	1.266790e-003
6.259999999999955e+000	6.260000e+000	1.266797e-003
6.279999999999954e+000	6.280000e+000	1.266805e-003
6.299999999999954e+000	6.300000e+000	1.266812e-003
6.319999999999953e+000	6.320000e+000	1.266820e-003
6.339999999999953e+000	6.340000e+000	1.266827e-003
6.359999999999952e+000	6.360000e+000	1.266834e-003
6.379999999999952e+000	6.380000e+000	1.266842e-003
6.399999999999952e+000	6.400000e+000	1.266849e-003
6.419999999999951e+000	6.420000e+000	1.266857e-003
6.439999999999951e+000	6.440000e+000	1.266864e-003
6.459999999999950e+000	6.460000e+000	1.266872e-003
6.479999999999950e+000	6.480000e+000	1.266879e-003
6.499999999999949e+000	6.500000e+000	1.266887e-003
6.519999999999949e+000	6.520000e+000	1.266894e-003
6.539999999999949e+000	6.540000e+000	1.266901e-003
6.559999999999948e+000	6.560000e+000	1.266909e-003
6.579999999999948e+000	6.580000e+000	1.266917e-003
6.599999999999947e+000	6.600000e+000	1.266924e-003
6.619999999999947e+000	6.620000e+000	1.266931e-003
6.639999999999946e+000	6.640000e+000	1.266939e-003
6.659999999999946e+000	6.660000e+000	1.266946e-003
6.679999999999946e+000	6.680000e+000	1.266954e-003
6.699999999999945e+000	6.700000e+000	1.266961e-003
6.719999999999945e+000	6.720000e+000	1.266969e-003
6.739999999999944e+000	6.740000e+000	1.266976e-003
6.759999999999944e+000	6.760000e+000	1.266984e-003
6.779999999999943e+000	6.780000e+000	1.266991e-003
6.799999999999943e+000	6.800000e+000	1.266998e-003
6.819999999999943e+000	6.820000e+000	1.267006e-003
6.839999999999942e+000	6.840000e+000	1.267013e-003
6.859999999999942e+000	6.860000e+000	1.267021e-003
6.879999999999941e+000	6.880000e+000	1.267028e-003
6.899999999999941e+000	6.900000e+000	1.267036e-003
6.919999999999940e+000	6.920000e+000	1.267043e-003
6.939999999999940e+000	6.940000e+000	1.267051e-003
6.959999999999940e+000	6.960000e+000	1.267058e-003
6.979999999999939e+000	6.980000e+000	1.267066e-003
6.999999999999939e+000	7.000000e+000	1.267073e-003
7.019999999999938e+000	7.020000e+000	1.267081e-003
7.039999999999938e+000	7.040000e+000	1.267088e-003
7.059999999999937e+000	7.060000e+000	1.267095e-003
7.079999999999937e+000	7.080000e+000	1.267103e-003
7.099999999999937e+000	7.100000e+000	1.267110e-003
7.119999999999936e+000	7.120000e+000	1.267118e-003
7.139999999999936e+000	7.140000e+000	1.267125e-003
7.159999999999935e+000	7.160000e+000	1.267133e-003
7.179999999999935e+000	7.180000e+000	1.267140e-003
7.199999999999935e+000	7.200000e+000	1.267148e-003
7.219999999999934e+000	7.220000e+000	1.267155e-003
7.239999999999934e+000	7.240000e+000	1.267163e-003
7.259999999999933e+000	7.260000e+000	1.267170e-003
7.279999999999933e+000	7.280000e+000	1.267177e-003
7.299999999999932e+000	7.300000e+000	1.267185e-003
7.319999999999932e+000	7.320000e+000	1.267192e-003
7.339999999999932e+000	7.340000e+000	1.267200e-003
7.359999999999931e+000	7.360000e+000	1.267207e-003
7.379999999999931e+000	7.380000e+000	1.267215e-003
7.399999999999930e+000	7.400000e+000	1.267222e-003
7.419999999999930e+000	7.420000e+000	1.267230e-003
7.439999999999929e+000	7.440000e+000	1.267237e-003
7.459999999999929e+000	7.460000e+000	1.267245e-003
7.479999999999929e+000	7.480000e+000	1.267252e-003
7.499999999999928e+000	7.500000e+000	1.267259e-003
7.519999999999928e+000	7.520000e+000	1.267267e-003
7.539999999999927e+000	7.540000e+000	1.267274e-003
7.559999999999927e+000	7.560000e+000	1.267282e-003
7.579999999999926e+000	7.580000e+000	1.267289e-003
7.599999999999926e+000	7.600000e+000	1.267297e-003
7.619999999999926e+000	7.620000e+000	1.267304e-003
7.639999999999925e+000	7.640000e+000	1.267312e-003
7.659999999999925e+000	7.660000e+000	1.267319e-003
7.679999999999924e+000	7.680000e+000	1.267327e-003
7.699999999999924e+000	7.700000e+000	1.267334e-003
7.719999999999923e+000	7.720000e+000	1.267342e-003
7.739999999999923e+000	7.740000e+000	1.267349e-003
7.759999999999923e+000	7.760000e+000	1.267356e-003
7.779999999999922e+000	7.780000e+000	1.267364e-003
7.799999999999922e+000	7.800000e+000	1.267371e-003
