vin	V(gs)	Id(M1)
-2.500000000000000e+000	-2.500000e+000	2.051204e-011
-2.490000000000000e+000	-2.490000e+000	2.065224e-011
-2.480000000000000e+000	-2.480000e+000	2.088756e-011
-2.470000000000001e+000	-2.470000e+000	2.117022e-011
-2.460000000000001e+000	-2.460000e+000	2.154388e-011
-2.450000000000001e+000	-2.450000e+000	2.203793e-011
-2.440000000000001e+000	-2.440000e+000	2.269109e-011
-2.430000000000002e+000	-2.430000e+000	2.355467e-011
-2.420000000000002e+000	-2.420000e+000	2.469638e-011
-2.410000000000002e+000	-2.410000e+000	2.620575e-011
-2.400000000000002e+000	-2.400000e+000	2.820140e-011
-2.390000000000002e+000	-2.390000e+000	3.083978e-011
-2.380000000000003e+000	-2.380000e+000	3.432801e-011
-2.370000000000003e+000	-2.370000e+000	3.893961e-011
-2.360000000000003e+000	-2.360000e+000	4.503664e-011
-2.350000000000003e+000	-2.350000e+000	5.309748e-011
-2.340000000000003e+000	-2.340000e+000	6.375465e-011
-2.330000000000004e+000	-2.330000e+000	7.784431e-011
-2.320000000000004e+000	-2.320000e+000	9.647212e-011
-2.310000000000004e+000	-2.310000e+000	1.210998e-010
-2.300000000000004e+000	-2.300000e+000	1.536598e-010
-2.290000000000005e+000	-2.290000e+000	1.967070e-010
-2.280000000000005e+000	-2.280000e+000	2.536192e-010
-2.270000000000005e+000	-2.270000e+000	3.288622e-010
-2.260000000000005e+000	-2.260000e+000	4.283402e-010
-2.250000000000005e+000	-2.250000e+000	5.598589e-010
-2.240000000000006e+000	-2.240000e+000	7.337382e-010
-2.230000000000006e+000	-2.230000e+000	9.636217e-010
-2.220000000000006e+000	-2.220000e+000	1.267548e-009
-2.210000000000006e+000	-2.210000e+000	1.669364e-009
-2.200000000000006e+000	-2.200000e+000	2.200599e-009
-2.190000000000007e+000	-2.190000e+000	2.902935e-009
-2.180000000000007e+000	-2.180000e+000	3.831480e-009
-2.170000000000007e+000	-2.170000e+000	5.059088e-009
-2.160000000000007e+000	-2.160000e+000	6.682074e-009
-2.150000000000008e+000	-2.150000e+000	8.827772e-009
-2.140000000000008e+000	-2.140000e+000	1.166451e-008
-2.130000000000008e+000	-2.130000e+000	1.541483e-008
-2.120000000000008e+000	-2.120000e+000	2.037288e-008
-2.110000000000008e+000	-2.110000e+000	2.692754e-008
-2.100000000000009e+000	-2.100000e+000	3.559279e-008
-2.090000000000009e+000	-2.090000e+000	4.704798e-008
-2.080000000000009e+000	-2.080000e+000	6.219096e-008
-2.070000000000009e+000	-2.070000e+000	8.220817e-008
-2.060000000000009e+000	-2.060000e+000	1.086672e-007
-2.050000000000010e+000	-2.050000e+000	1.436387e-007
-2.040000000000010e+000	-2.040000e+000	1.898573e-007
-2.030000000000010e+000	-2.030000e+000	2.509329e-007
-2.020000000000010e+000	-2.020000e+000	3.316291e-007
-2.010000000000010e+000	-2.010000e+000	4.382269e-007
-2.000000000000011e+000	-2.000000e+000	5.790027e-007
-1.990000000000011e+000	-1.990000e+000	7.648488e-007
-1.980000000000011e+000	-1.980000e+000	1.010081e-006
-1.970000000000011e+000	-1.970000e+000	1.558609e-006
-1.960000000000011e+000	-1.960000e+000	2.365103e-006
-1.950000000000011e+000	-1.950000e+000	3.336329e-006
-1.940000000000011e+000	-1.940000e+000	4.470972e-006
-1.930000000000011e+000	-1.930000e+000	5.767740e-006
-1.920000000000011e+000	-1.920000e+000	7.225357e-006
-1.910000000000011e+000	-1.910000e+000	8.842564e-006
-1.900000000000011e+000	-1.900000e+000	1.061812e-005
-1.890000000000011e+000	-1.890000e+000	1.255080e-005
-1.880000000000011e+000	-1.880000e+000	1.463941e-005
-1.870000000000011e+000	-1.870000e+000	1.688274e-005
-1.860000000000011e+000	-1.860000e+000	1.927963e-005
-1.850000000000011e+000	-1.850000e+000	2.182892e-005
-1.840000000000011e+000	-1.840000e+000	2.452947e-005
-1.830000000000011e+000	-1.830000e+000	2.738014e-005
-1.820000000000011e+000	-1.820000e+000	3.037983e-005
-1.810000000000011e+000	-1.810000e+000	3.352745e-005
-1.800000000000011e+000	-1.800000e+000	3.682190e-005
-1.790000000000011e+000	-1.790000e+000	4.026212e-005
-1.780000000000011e+000	-1.780000e+000	4.384706e-005
-1.770000000000011e+000	-1.770000e+000	4.757568e-005
-1.760000000000010e+000	-1.760000e+000	5.144694e-005
-1.750000000000010e+000	-1.750000e+000	5.545983e-005
-1.740000000000010e+000	-1.740000e+000	5.961337e-005
-1.730000000000010e+000	-1.730000e+000	6.390654e-005
-1.720000000000010e+000	-1.720000e+000	6.833838e-005
-1.710000000000010e+000	-1.710000e+000	7.290793e-005
-1.700000000000010e+000	-1.700000e+000	7.761424e-005
-1.690000000000010e+000	-1.690000e+000	8.245636e-005
-1.680000000000010e+000	-1.680000e+000	8.743336e-005
-1.670000000000010e+000	-1.670000e+000	9.254435e-005
-1.660000000000010e+000	-1.660000e+000	9.778838e-005
-1.650000000000010e+000	-1.650000e+000	1.031646e-004
-1.640000000000010e+000	-1.640000e+000	1.086721e-004
-1.630000000000010e+000	-1.630000e+000	1.143100e-004
-1.620000000000010e+000	-1.620000e+000	1.200775e-004
-1.610000000000010e+000	-1.610000e+000	1.259736e-004
-1.600000000000010e+000	-1.600000e+000	1.319977e-004
-1.590000000000010e+000	-1.590000e+000	1.381487e-004
-1.580000000000010e+000	-1.580000e+000	1.444260e-004
-1.570000000000010e+000	-1.570000e+000	1.508286e-004
-1.560000000000010e+000	-1.560000e+000	1.573558e-004
-1.550000000000010e+000	-1.550000e+000	1.640069e-004
-1.540000000000010e+000	-1.540000e+000	1.707809e-004
-1.530000000000010e+000	-1.530000e+000	1.776771e-004
-1.520000000000010e+000	-1.520000e+000	1.846949e-004
-1.510000000000010e+000	-1.510000e+000	1.918333e-004
-1.500000000000010e+000	-1.500000e+000	1.990917e-004
-1.490000000000010e+000	-1.490000e+000	2.064693e-004
-1.480000000000010e+000	-1.480000e+000	2.139653e-004
-1.470000000000010e+000	-1.470000e+000	2.215791e-004
-1.460000000000010e+000	-1.460000e+000	2.293100e-004
-1.450000000000010e+000	-1.450000e+000	2.371572e-004
-1.440000000000010e+000	-1.440000e+000	2.451200e-004
-1.430000000000010e+000	-1.430000e+000	2.531977e-004
-1.420000000000010e+000	-1.420000e+000	2.613897e-004
-1.410000000000010e+000	-1.410000e+000	2.696952e-004
-1.400000000000010e+000	-1.400000e+000	2.781136e-004
-1.390000000000010e+000	-1.390000e+000	2.866443e-004
-1.380000000000010e+000	-1.380000e+000	2.952865e-004
-1.370000000000010e+000	-1.370000e+000	3.040396e-004
-1.360000000000010e+000	-1.360000e+000	3.129030e-004
-1.350000000000010e+000	-1.350000e+000	3.218760e-004
-1.340000000000010e+000	-1.340000e+000	3.309580e-004
-1.330000000000010e+000	-1.330000e+000	3.401484e-004
-1.320000000000010e+000	-1.320000e+000	3.494465e-004
-1.310000000000010e+000	-1.310000e+000	3.588517e-004
-1.300000000000010e+000	-1.300000e+000	3.683635e-004
-1.290000000000010e+000	-1.290000e+000	3.779813e-004
-1.280000000000010e+000	-1.280000e+000	3.877043e-004
-1.270000000000010e+000	-1.270000e+000	3.975321e-004
-1.260000000000010e+000	-1.260000e+000	4.074641e-004
-1.250000000000010e+000	-1.250000e+000	4.174997e-004
-1.240000000000010e+000	-1.240000e+000	4.276382e-004
-1.230000000000010e+000	-1.230000e+000	4.378792e-004
-1.220000000000010e+000	-1.220000e+000	4.482221e-004
-1.210000000000010e+000	-1.210000e+000	4.586664e-004
-1.200000000000010e+000	-1.200000e+000	4.692114e-004
-1.190000000000010e+000	-1.190000e+000	4.798567e-004
-1.180000000000010e+000	-1.180000e+000	4.906016e-004
-1.170000000000010e+000	-1.170000e+000	5.014457e-004
-1.160000000000010e+000	-1.160000e+000	5.123884e-004
-1.150000000000010e+000	-1.150000e+000	5.234293e-004
-1.140000000000010e+000	-1.140000e+000	5.345677e-004
-1.130000000000010e+000	-1.130000e+000	5.458032e-004
-1.120000000000010e+000	-1.120000e+000	5.571353e-004
-1.110000000000010e+000	-1.110000e+000	5.685634e-004
-1.100000000000010e+000	-1.100000e+000	5.800871e-004
-1.090000000000010e+000	-1.090000e+000	5.917058e-004
-1.080000000000010e+000	-1.080000e+000	6.034191e-004
-1.070000000000010e+000	-1.070000e+000	6.152265e-004
-1.060000000000010e+000	-1.060000e+000	6.271275e-004
-1.050000000000010e+000	-1.050000e+000	6.391215e-004
-1.040000000000010e+000	-1.040000e+000	6.512082e-004
-1.030000000000010e+000	-1.030000e+000	6.633871e-004
-1.020000000000010e+000	-1.020000e+000	6.756577e-004
-1.010000000000010e+000	-1.010000e+000	6.880196e-004
-1.000000000000010e+000	-1.000000e+000	7.004722e-004
-9.900000000000098e-001	-9.900000e-001	7.130151e-004
-9.800000000000098e-001	-9.800000e-001	7.256478e-004
-9.700000000000097e-001	-9.700000e-001	7.383701e-004
-9.600000000000097e-001	-9.600000e-001	7.511813e-004
-9.500000000000097e-001	-9.500000e-001	7.640811e-004
-9.400000000000097e-001	-9.400000e-001	7.770689e-004
-9.300000000000097e-001	-9.300000e-001	7.901444e-004
-9.200000000000097e-001	-9.200000e-001	8.033072e-004
-9.100000000000097e-001	-9.100000e-001	8.165569e-004
-9.000000000000097e-001	-9.000000e-001	8.298929e-004
-8.900000000000097e-001	-8.900000e-001	8.433149e-004
-8.800000000000097e-001	-8.800000e-001	8.568224e-004
-8.700000000000097e-001	-8.700000e-001	8.704151e-004
-8.600000000000097e-001	-8.600000e-001	8.840926e-004
-8.500000000000096e-001	-8.500000e-001	8.978544e-004
-8.400000000000096e-001	-8.400000e-001	9.117001e-004
-8.300000000000096e-001	-8.300000e-001	9.256295e-004
-8.200000000000096e-001	-8.200000e-001	9.396419e-004
-8.100000000000096e-001	-8.100000e-001	9.537371e-004
-8.000000000000096e-001	-8.000000e-001	9.679146e-004
-7.900000000000096e-001	-7.900000e-001	9.821742e-004
-7.800000000000096e-001	-7.800000e-001	9.965154e-004
-7.700000000000096e-001	-7.700000e-001	1.010938e-003
-7.600000000000096e-001	-7.600000e-001	1.025441e-003
-7.500000000000096e-001	-7.500000e-001	1.040025e-003
-7.400000000000095e-001	-7.400000e-001	1.054689e-003
-7.300000000000095e-001	-7.300000e-001	1.069432e-003
-7.200000000000095e-001	-7.200000e-001	1.084255e-003
-7.100000000000095e-001	-7.100000e-001	1.099157e-003
-7.000000000000095e-001	-7.000000e-001	1.114137e-003
-6.900000000000095e-001	-6.900000e-001	1.129196e-003
-6.800000000000095e-001	-6.800000e-001	1.144333e-003
-6.700000000000095e-001	-6.700000e-001	1.159547e-003
-6.600000000000095e-001	-6.600000e-001	1.174839e-003
-6.500000000000095e-001	-6.500000e-001	1.190208e-003
-6.400000000000095e-001	-6.400000e-001	1.205653e-003
-6.300000000000094e-001	-6.300000e-001	1.221174e-003
-6.200000000000094e-001	-6.200000e-001	1.236771e-003
-6.100000000000094e-001	-6.100000e-001	1.252444e-003
-6.000000000000094e-001	-6.000000e-001	1.268192e-003
-5.900000000000094e-001	-5.900000e-001	1.284014e-003
-5.800000000000094e-001	-5.800000e-001	1.299912e-003
-5.700000000000094e-001	-5.700000e-001	1.315883e-003
-5.600000000000094e-001	-5.600000e-001	1.331929e-003
-5.500000000000094e-001	-5.500000e-001	1.348048e-003
-5.400000000000094e-001	-5.400000e-001	1.364240e-003
-5.300000000000094e-001	-5.300000e-001	1.380505e-003
-5.200000000000093e-001	-5.200000e-001	1.396843e-003
-5.100000000000093e-001	-5.100000e-001	1.413253e-003
-5.000000000000093e-001	-5.000000e-001	1.429735e-003
-4.900000000000093e-001	-4.900000e-001	1.446289e-003
-4.800000000000093e-001	-4.800000e-001	1.462914e-003
-4.700000000000093e-001	-4.700000e-001	1.479610e-003
-4.600000000000093e-001	-4.600000e-001	1.496377e-003
-4.500000000000093e-001	-4.500000e-001	1.513215e-003
-4.400000000000093e-001	-4.400000e-001	1.530122e-003
-4.300000000000093e-001	-4.300000e-001	1.547100e-003
-4.200000000000093e-001	-4.200000e-001	1.564147e-003
-4.100000000000093e-001	-4.100000e-001	1.581264e-003
-4.000000000000092e-001	-4.000000e-001	1.598449e-003
-3.900000000000092e-001	-3.900000e-001	1.615703e-003
-3.800000000000092e-001	-3.800000e-001	1.633026e-003
-3.700000000000092e-001	-3.700000e-001	1.650417e-003
-3.600000000000092e-001	-3.600000e-001	1.667876e-003
-3.500000000000092e-001	-3.500000e-001	1.685402e-003
-3.400000000000092e-001	-3.400000e-001	1.702996e-003
-3.300000000000092e-001	-3.300000e-001	1.720657e-003
-3.200000000000092e-001	-3.200000e-001	1.738384e-003
-3.100000000000092e-001	-3.100000e-001	1.756178e-003
-3.000000000000092e-001	-3.000000e-001	1.774038e-003
-2.900000000000091e-001	-2.900000e-001	1.791965e-003
-2.800000000000091e-001	-2.800000e-001	1.809957e-003
-2.700000000000091e-001	-2.700000e-001	1.828014e-003
-2.600000000000091e-001	-2.600000e-001	1.846137e-003
-2.500000000000091e-001	-2.500000e-001	1.864324e-003
-2.400000000000091e-001	-2.400000e-001	1.882576e-003
-2.300000000000091e-001	-2.300000e-001	1.900893e-003
-2.200000000000091e-001	-2.200000e-001	1.919273e-003
-2.100000000000091e-001	-2.100000e-001	1.937718e-003
-2.000000000000091e-001	-2.000000e-001	1.956226e-003
-1.900000000000091e-001	-1.900000e-001	1.974798e-003
-1.800000000000090e-001	-1.800000e-001	1.993432e-003
-1.700000000000090e-001	-1.700000e-001	2.012130e-003
-1.600000000000090e-001	-1.600000e-001	2.030890e-003
-1.500000000000090e-001	-1.500000e-001	2.049713e-003
-1.400000000000090e-001	-1.400000e-001	2.068598e-003
-1.300000000000090e-001	-1.300000e-001	2.087545e-003
-1.200000000000090e-001	-1.200000e-001	2.106553e-003
-1.100000000000090e-001	-1.100000e-001	2.125623e-003
-1.000000000000090e-001	-1.000000e-001	2.144754e-003
-9.000000000000902e-002	-9.000000e-002	2.163946e-003
-8.000000000000902e-002	-8.000000e-002	2.183199e-003
-7.000000000000903e-002	-7.000000e-002	2.202512e-003
-6.000000000000903e-002	-6.000000e-002	2.221886e-003
-5.000000000000902e-002	-5.000000e-002	2.241319e-003
-4.000000000000902e-002	-4.000000e-002	2.260813e-003
-3.000000000000902e-002	-3.000000e-002	2.280366e-003
-2.000000000000902e-002	-2.000000e-002	2.299978e-003
-1.000000000000902e-002	-1.000000e-002	2.319650e-003
-9.017092628127443e-015	-9.017093e-015	2.339380e-003
9.999999999990983e-003	1.000000e-002	2.359169e-003
1.999999999999098e-002	2.000000e-002	2.379017e-003
2.999999999999099e-002	3.000000e-002	2.398923e-003
3.999999999999099e-002	4.000000e-002	2.418887e-003
4.999999999999099e-002	5.000000e-002	2.438909e-003
5.999999999999099e-002	6.000000e-002	2.458988e-003
6.999999999999099e-002	7.000000e-002	2.479125e-003
7.999999999999098e-002	8.000000e-002	2.499319e-003
8.999999999999098e-002	9.000000e-002	2.519570e-003
9.999999999999097e-002	1.000000e-001	2.539878e-003
1.099999999999910e-001	1.100000e-001	2.560242e-003
1.199999999999910e-001	1.200000e-001	2.580663e-003
1.299999999999910e-001	1.300000e-001	2.601139e-003
1.399999999999910e-001	1.400000e-001	2.621672e-003
1.499999999999910e-001	1.500000e-001	2.642261e-003
1.599999999999910e-001	1.600000e-001	2.662905e-003
1.699999999999910e-001	1.700000e-001	2.683604e-003
1.799999999999910e-001	1.800000e-001	2.704359e-003
1.899999999999910e-001	1.900000e-001	2.725169e-003
1.999999999999910e-001	2.000000e-001	2.746033e-003
2.099999999999910e-001	2.100000e-001	2.766952e-003
2.199999999999910e-001	2.200000e-001	2.787925e-003
2.299999999999910e-001	2.300000e-001	2.808952e-003
2.399999999999911e-001	2.400000e-001	2.830034e-003
2.499999999999911e-001	2.500000e-001	2.851169e-003
2.599999999999911e-001	2.600000e-001	2.872358e-003
2.699999999999911e-001	2.700000e-001	2.893600e-003
2.799999999999911e-001	2.800000e-001	2.914895e-003
2.899999999999911e-001	2.900000e-001	2.936244e-003
2.999999999999911e-001	3.000000e-001	2.957645e-003
3.099999999999911e-001	3.100000e-001	2.979099e-003
3.199999999999911e-001	3.200000e-001	3.000605e-003
3.299999999999911e-001	3.300000e-001	3.022164e-003
3.399999999999911e-001	3.400000e-001	3.043775e-003
3.499999999999912e-001	3.500000e-001	3.065438e-003
3.599999999999912e-001	3.600000e-001	3.087152e-003
3.699999999999912e-001	3.700000e-001	3.108919e-003
3.799999999999912e-001	3.800000e-001	3.130736e-003
3.899999999999912e-001	3.900000e-001	3.152605e-003
3.999999999999912e-001	4.000000e-001	3.174525e-003
4.099999999999912e-001	4.100000e-001	3.196496e-003
4.199999999999912e-001	4.200000e-001	3.218517e-003
4.299999999999912e-001	4.300000e-001	3.240589e-003
4.399999999999912e-001	4.400000e-001	3.262711e-003
4.499999999999912e-001	4.500000e-001	3.284884e-003
4.599999999999913e-001	4.600000e-001	3.307106e-003
4.699999999999913e-001	4.700000e-001	3.329379e-003
4.799999999999913e-001	4.800000e-001	3.351701e-003
4.899999999999913e-001	4.900000e-001	3.374073e-003
4.999999999999913e-001	5.000000e-001	3.396494e-003
5.099999999999912e-001	5.100000e-001	3.418964e-003
5.199999999999913e-001	5.200000e-001	3.441483e-003
5.299999999999913e-001	5.300000e-001	3.464051e-003
5.399999999999913e-001	5.400000e-001	3.486668e-003
5.499999999999913e-001	5.500000e-001	3.509333e-003
5.599999999999913e-001	5.600000e-001	3.532047e-003
5.699999999999913e-001	5.700000e-001	3.554809e-003
5.799999999999913e-001	5.800000e-001	3.577619e-003
5.899999999999913e-001	5.900000e-001	3.600477e-003
5.999999999999913e-001	6.000000e-001	3.623383e-003
6.099999999999913e-001	6.100000e-001	3.646336e-003
6.199999999999913e-001	6.200000e-001	3.669337e-003
6.299999999999913e-001	6.300000e-001	3.692385e-003
6.399999999999914e-001	6.400000e-001	3.715480e-003
6.499999999999914e-001	6.500000e-001	3.738622e-003
6.599999999999914e-001	6.600000e-001	3.761811e-003
6.699999999999914e-001	6.700000e-001	3.785047e-003
6.799999999999914e-001	6.800000e-001	3.808329e-003
6.899999999999914e-001	6.900000e-001	3.831657e-003
6.999999999999914e-001	7.000000e-001	3.855032e-003
7.099999999999914e-001	7.100000e-001	3.878453e-003
7.199999999999914e-001	7.200000e-001	3.901920e-003
7.299999999999914e-001	7.300000e-001	3.925432e-003
7.399999999999914e-001	7.400000e-001	3.948990e-003
7.499999999999915e-001	7.500000e-001	3.972594e-003
7.599999999999915e-001	7.600000e-001	3.996243e-003
7.699999999999915e-001	7.700000e-001	4.019937e-003
7.799999999999915e-001	7.800000e-001	4.043677e-003
7.899999999999915e-001	7.900000e-001	4.067461e-003
7.999999999999915e-001	8.000000e-001	4.091290e-003
8.099999999999915e-001	8.100000e-001	4.115164e-003
8.199999999999915e-001	8.200000e-001	4.139083e-003
8.299999999999915e-001	8.300000e-001	4.163045e-003
8.399999999999915e-001	8.400000e-001	4.187052e-003
8.499999999999915e-001	8.500000e-001	4.211103e-003
8.599999999999916e-001	8.600000e-001	4.235198e-003
8.699999999999916e-001	8.700000e-001	4.259336e-003
8.799999999999916e-001	8.800000e-001	4.283519e-003
8.899999999999916e-001	8.900000e-001	4.307745e-003
8.999999999999916e-001	9.000000e-001	4.332014e-003
9.099999999999916e-001	9.100000e-001	4.356327e-003
9.199999999999916e-001	9.200000e-001	4.380682e-003
9.299999999999916e-001	9.300000e-001	4.405081e-003
9.399999999999916e-001	9.400000e-001	4.429523e-003
9.499999999999916e-001	9.500000e-001	4.454008e-003
9.599999999999916e-001	9.600000e-001	4.478535e-003
9.699999999999917e-001	9.700000e-001	4.503104e-003
9.799999999999917e-001	9.800000e-001	4.527716e-003
9.899999999999917e-001	9.900000e-001	4.552371e-003
9.999999999999917e-001	1.000000e+000	4.577067e-003
1.009999999999992e+000	1.010000e+000	4.601805e-003
1.019999999999992e+000	1.020000e+000	4.626586e-003
1.029999999999992e+000	1.030000e+000	4.651408e-003
1.039999999999992e+000	1.040000e+000	4.676271e-003
1.049999999999992e+000	1.050000e+000	4.701176e-003
1.059999999999992e+000	1.060000e+000	4.726123e-003
1.069999999999992e+000	1.070000e+000	4.751110e-003
1.079999999999992e+000	1.080000e+000	4.776139e-003
1.089999999999992e+000	1.090000e+000	4.801209e-003
1.099999999999992e+000	1.100000e+000	4.826319e-003
1.109999999999992e+000	1.110000e+000	4.851471e-003
1.119999999999992e+000	1.120000e+000	4.876663e-003
1.129999999999992e+000	1.130000e+000	4.901896e-003
1.139999999999992e+000	1.140000e+000	4.927169e-003
1.149999999999992e+000	1.150000e+000	4.952482e-003
1.159999999999992e+000	1.160000e+000	4.977835e-003
1.169999999999992e+000	1.170000e+000	5.003229e-003
1.179999999999992e+000	1.180000e+000	5.028662e-003
1.189999999999992e+000	1.190000e+000	5.054136e-003
1.199999999999992e+000	1.200000e+000	5.079649e-003
1.209999999999992e+000	1.210000e+000	5.105201e-003
1.219999999999992e+000	1.220000e+000	5.130793e-003
1.229999999999992e+000	1.230000e+000	5.156425e-003
1.239999999999992e+000	1.240000e+000	5.182095e-003
1.249999999999992e+000	1.250000e+000	5.207805e-003
1.259999999999992e+000	1.260000e+000	5.233554e-003
1.269999999999992e+000	1.270000e+000	5.259342e-003
1.279999999999992e+000	1.280000e+000	5.285168e-003
1.289999999999992e+000	1.290000e+000	5.311033e-003
1.299999999999992e+000	1.300000e+000	5.336937e-003
