vdd	V(ds)	Id(M1)
0.000000000000000e+000	0.000000e+000	4.268018e-032
2.000000000000000e-002	2.000000e-002	2.859637e-005
4.000000000000000e-002	4.000000e-002	5.673131e-005
6.000000000000000e-002	6.000000e-002	8.440256e-005
8.000000000000000e-002	8.000000e-002	1.116079e-004
1.000000000000000e-001	1.000000e-001	1.383449e-004
1.200000000000000e-001	1.200000e-001	1.646115e-004
1.400000000000000e-001	1.400000e-001	1.904052e-004
1.600000000000000e-001	1.600000e-001	2.157238e-004
1.800000000000000e-001	1.800000e-001	2.405649e-004
2.000000000000000e-001	2.000000e-001	2.649264e-004
2.200000000000000e-001	2.200000e-001	2.888057e-004
2.400000000000000e-001	2.400000e-001	3.122007e-004
2.600000000000000e-001	2.600000e-001	3.351090e-004
2.800000000000000e-001	2.800000e-001	3.575282e-004
3.000000000000000e-001	3.000000e-001	3.794561e-004
3.200000000000000e-001	3.200000e-001	4.008902e-004
3.400000000000000e-001	3.400000e-001	4.218283e-004
3.600000000000000e-001	3.600000e-001	4.422681e-004
3.800000000000001e-001	3.800000e-001	4.622071e-004
4.000000000000001e-001	4.000000e-001	4.816430e-004
4.200000000000001e-001	4.200000e-001	5.005736e-004
4.400000000000001e-001	4.400000e-001	5.189964e-004
4.600000000000001e-001	4.600000e-001	5.369092e-004
4.800000000000002e-001	4.800000e-001	5.543096e-004
5.000000000000001e-001	5.000000e-001	5.711952e-004
5.200000000000001e-001	5.200000e-001	5.875638e-004
5.400000000000002e-001	5.400000e-001	6.034131e-004
5.600000000000002e-001	5.600000e-001	6.187406e-004
5.800000000000002e-001	5.800000e-001	6.335441e-004
6.000000000000002e-001	6.000000e-001	6.478213e-004
6.200000000000002e-001	6.200000e-001	6.615699e-004
6.400000000000002e-001	6.400000e-001	6.747876e-004
6.600000000000003e-001	6.600000e-001	6.874720e-004
6.800000000000003e-001	6.800000e-001	6.996209e-004
7.000000000000003e-001	7.000000e-001	7.112320e-004
7.200000000000003e-001	7.200000e-001	7.223031e-004
7.400000000000003e-001	7.400000e-001	7.328318e-004
7.600000000000003e-001	7.600000e-001	7.428159e-004
7.800000000000004e-001	7.800000e-001	7.522532e-004
8.000000000000004e-001	8.000000e-001	7.611413e-004
8.200000000000004e-001	8.200000e-001	7.694781e-004
8.400000000000004e-001	8.400000e-001	7.772614e-004
8.600000000000004e-001	8.600000e-001	7.844889e-004
8.800000000000005e-001	8.800000e-001	7.911584e-004
9.000000000000005e-001	9.000000e-001	7.972677e-004
9.200000000000005e-001	9.200000e-001	8.028146e-004
9.400000000000005e-001	9.400000e-001	8.077970e-004
9.600000000000005e-001	9.600000e-001	8.122126e-004
9.800000000000005e-001	9.800000e-001	8.160595e-004
1.000000000000000e+000	1.000000e+000	8.193352e-004
1.020000000000001e+000	1.020000e+000	8.220378e-004
1.040000000000001e+000	1.040000e+000	8.241652e-004
1.060000000000001e+000	1.060000e+000	8.257151e-004
1.080000000000001e+000	1.080000e+000	8.266855e-004
1.100000000000001e+000	1.100000e+000	8.270744e-004
1.120000000000001e+000	1.120000e+000	8.270878e-004
1.140000000000001e+000	1.140000e+000	8.270941e-004
1.160000000000001e+000	1.160000e+000	8.271004e-004
1.180000000000001e+000	1.180000e+000	8.271068e-004
1.200000000000001e+000	1.200000e+000	8.271131e-004
1.220000000000001e+000	1.220000e+000	8.271194e-004
1.240000000000001e+000	1.240000e+000	8.271257e-004
1.260000000000001e+000	1.260000e+000	8.271320e-004
1.280000000000001e+000	1.280000e+000	8.271383e-004
1.300000000000001e+000	1.300000e+000	8.271447e-004
1.320000000000001e+000	1.320000e+000	8.271509e-004
1.340000000000001e+000	1.340000e+000	8.271573e-004
1.360000000000001e+000	1.360000e+000	8.271636e-004
1.380000000000001e+000	1.380000e+000	8.271699e-004
1.400000000000001e+000	1.400000e+000	8.271762e-004
1.420000000000001e+000	1.420000e+000	8.271825e-004
1.440000000000001e+000	1.440000e+000	8.271888e-004
1.460000000000001e+000	1.460000e+000	8.271951e-004
1.480000000000001e+000	1.480000e+000	8.272015e-004
1.500000000000001e+000	1.500000e+000	8.272078e-004
1.520000000000001e+000	1.520000e+000	8.272141e-004
1.540000000000001e+000	1.540000e+000	8.272204e-004
1.560000000000001e+000	1.560000e+000	8.272267e-004
1.580000000000001e+000	1.580000e+000	8.272330e-004
1.600000000000001e+000	1.600000e+000	8.272394e-004
1.620000000000001e+000	1.620000e+000	8.272456e-004
1.640000000000001e+000	1.640000e+000	8.272520e-004
1.660000000000001e+000	1.660000e+000	8.272583e-004
1.680000000000001e+000	1.680000e+000	8.272646e-004
1.700000000000001e+000	1.700000e+000	8.272709e-004
1.720000000000001e+000	1.720000e+000	8.272772e-004
1.740000000000001e+000	1.740000e+000	8.272835e-004
1.760000000000001e+000	1.760000e+000	8.272898e-004
1.780000000000001e+000	1.780000e+000	8.272962e-004
1.800000000000001e+000	1.800000e+000	8.273025e-004
1.820000000000001e+000	1.820000e+000	8.273088e-004
1.840000000000001e+000	1.840000e+000	8.273151e-004
1.860000000000001e+000	1.860000e+000	8.273214e-004
1.880000000000001e+000	1.880000e+000	8.273277e-004
1.900000000000001e+000	1.900000e+000	8.273341e-004
1.920000000000001e+000	1.920000e+000	8.273404e-004
1.940000000000001e+000	1.940000e+000	8.273467e-004
1.960000000000001e+000	1.960000e+000	8.273530e-004
1.980000000000001e+000	1.980000e+000	8.273593e-004
2.000000000000001e+000	2.000000e+000	8.273656e-004
2.020000000000001e+000	2.020000e+000	8.273720e-004
2.040000000000001e+000	2.040000e+000	8.273782e-004
2.060000000000001e+000	2.060000e+000	8.273846e-004
2.080000000000001e+000	2.080000e+000	8.273909e-004
2.100000000000001e+000	2.100000e+000	8.273972e-004
2.120000000000001e+000	2.120000e+000	8.274035e-004
2.140000000000002e+000	2.140000e+000	8.274098e-004
2.160000000000002e+000	2.160000e+000	8.274161e-004
2.180000000000002e+000	2.180000e+000	8.274224e-004
2.200000000000002e+000	2.200000e+000	8.274288e-004
2.220000000000002e+000	2.220000e+000	8.274351e-004
2.240000000000002e+000	2.240000e+000	8.274414e-004
2.260000000000002e+000	2.260000e+000	8.274477e-004
2.280000000000002e+000	2.280000e+000	8.274540e-004
2.300000000000002e+000	2.300000e+000	8.274603e-004
2.320000000000002e+000	2.320000e+000	8.274667e-004
2.340000000000002e+000	2.340000e+000	8.274729e-004
2.360000000000002e+000	2.360000e+000	8.274793e-004
2.380000000000002e+000	2.380000e+000	8.274856e-004
2.400000000000002e+000	2.400000e+000	8.274919e-004
2.420000000000002e+000	2.420000e+000	8.274982e-004
2.440000000000002e+000	2.440000e+000	8.275046e-004
2.460000000000002e+000	2.460000e+000	8.275108e-004
2.480000000000002e+000	2.480000e+000	8.275172e-004
2.500000000000002e+000	2.500000e+000	8.275235e-004
2.520000000000002e+000	2.520000e+000	8.275298e-004
2.540000000000002e+000	2.540000e+000	8.275361e-004
2.560000000000002e+000	2.560000e+000	8.275424e-004
2.580000000000002e+000	2.580000e+000	8.275487e-004
2.600000000000002e+000	2.600000e+000	8.275551e-004
2.620000000000002e+000	2.620000e+000	8.275614e-004
2.640000000000002e+000	2.640000e+000	8.275677e-004
2.660000000000002e+000	2.660000e+000	8.275740e-004
2.680000000000002e+000	2.680000e+000	8.275803e-004
2.700000000000002e+000	2.700000e+000	8.275866e-004
2.720000000000002e+000	2.720000e+000	8.275930e-004
2.740000000000002e+000	2.740000e+000	8.275993e-004
2.760000000000002e+000	2.760000e+000	8.276055e-004
2.780000000000002e+000	2.780000e+000	8.276119e-004
2.800000000000002e+000	2.800000e+000	8.276182e-004
2.820000000000002e+000	2.820000e+000	8.276245e-004
2.840000000000002e+000	2.840000e+000	8.276308e-004
2.860000000000002e+000	2.860000e+000	8.276372e-004
2.880000000000002e+000	2.880000e+000	8.276434e-004
2.900000000000002e+000	2.900000e+000	8.276498e-004
2.920000000000002e+000	2.920000e+000	8.276561e-004
2.940000000000002e+000	2.940000e+000	8.276624e-004
2.960000000000002e+000	2.960000e+000	8.276687e-004
2.980000000000002e+000	2.980000e+000	8.276750e-004
3.000000000000002e+000	3.000000e+000	8.276813e-004
3.020000000000002e+000	3.020000e+000	8.276877e-004
3.040000000000002e+000	3.040000e+000	8.276940e-004
3.060000000000002e+000	3.060000e+000	8.277003e-004
3.080000000000002e+000	3.080000e+000	8.277066e-004
3.100000000000002e+000	3.100000e+000	8.277129e-004
3.120000000000002e+000	3.120000e+000	8.277192e-004
3.140000000000002e+000	3.140000e+000	8.277256e-004
3.160000000000002e+000	3.160000e+000	8.277319e-004
3.180000000000002e+000	3.180000e+000	8.277382e-004
3.200000000000002e+000	3.200000e+000	8.277445e-004
3.220000000000002e+000	3.220000e+000	8.277508e-004
3.240000000000002e+000	3.240000e+000	8.277571e-004
3.260000000000003e+000	3.260000e+000	8.277635e-004
3.280000000000003e+000	3.280000e+000	8.277697e-004
3.300000000000003e+000	3.300000e+000	8.277761e-004
3.320000000000003e+000	3.320000e+000	8.277824e-004
3.340000000000003e+000	3.340000e+000	8.277887e-004
3.360000000000003e+000	3.360000e+000	8.277950e-004
3.380000000000003e+000	3.380000e+000	8.278014e-004
3.400000000000003e+000	3.400000e+000	8.278076e-004
3.420000000000003e+000	3.420000e+000	8.278140e-004
3.440000000000003e+000	3.440000e+000	8.278203e-004
3.460000000000003e+000	3.460000e+000	8.278266e-004
3.480000000000003e+000	3.480000e+000	8.278329e-004
3.500000000000003e+000	3.500000e+000	8.278392e-004
3.520000000000003e+000	3.520000e+000	8.278455e-004
3.540000000000003e+000	3.540000e+000	8.278519e-004
3.560000000000003e+000	3.560000e+000	8.278582e-004
3.580000000000003e+000	3.580000e+000	8.278645e-004
3.600000000000003e+000	3.600000e+000	8.278708e-004
3.620000000000003e+000	3.620000e+000	8.278771e-004
3.640000000000003e+000	3.640000e+000	8.278834e-004
3.660000000000003e+000	3.660000e+000	8.278898e-004
3.680000000000003e+000	3.680000e+000	8.278961e-004
3.700000000000003e+000	3.700000e+000	8.279024e-004
3.720000000000003e+000	3.720000e+000	8.279087e-004
3.740000000000003e+000	3.740000e+000	8.279150e-004
3.760000000000003e+000	3.760000e+000	8.279213e-004
3.780000000000003e+000	3.780000e+000	8.279277e-004
3.800000000000003e+000	3.800000e+000	8.279340e-004
3.820000000000003e+000	3.820000e+000	8.279403e-004
3.840000000000003e+000	3.840000e+000	8.279466e-004
3.860000000000003e+000	3.860000e+000	8.279529e-004
3.880000000000003e+000	3.880000e+000	8.279592e-004
3.900000000000003e+000	3.900000e+000	8.279656e-004
3.920000000000003e+000	3.920000e+000	8.279719e-004
3.940000000000003e+000	3.940000e+000	8.279782e-004
3.960000000000003e+000	3.960000e+000	8.279845e-004
3.980000000000003e+000	3.980000e+000	8.279908e-004
4.000000000000003e+000	4.000000e+000	8.279972e-004
4.020000000000002e+000	4.020000e+000	8.280035e-004
4.040000000000002e+000	4.040000e+000	8.280098e-004
4.060000000000001e+000	4.060000e+000	8.280161e-004
4.080000000000001e+000	4.080000e+000	8.280224e-004
4.100000000000001e+000	4.100000e+000	8.280287e-004
4.120000000000000e+000	4.120000e+000	8.280351e-004
4.140000000000000e+000	4.140000e+000	8.280413e-004
4.159999999999999e+000	4.160000e+000	8.280477e-004
4.179999999999999e+000	4.180000e+000	8.280540e-004
4.199999999999998e+000	4.200000e+000	8.280603e-004
4.219999999999998e+000	4.220000e+000	8.280666e-004
4.239999999999998e+000	4.240000e+000	8.280730e-004
4.259999999999997e+000	4.260000e+000	8.280792e-004
4.279999999999997e+000	4.280000e+000	8.280856e-004
4.299999999999996e+000	4.300000e+000	8.280919e-004
4.319999999999996e+000	4.320000e+000	8.280982e-004
4.339999999999995e+000	4.340000e+000	8.281045e-004
4.359999999999995e+000	4.360000e+000	8.281108e-004
4.379999999999995e+000	4.380000e+000	8.281171e-004
4.399999999999994e+000	4.400000e+000	8.281235e-004
4.419999999999994e+000	4.420000e+000	8.281298e-004
4.439999999999993e+000	4.440000e+000	8.281361e-004
4.459999999999993e+000	4.460000e+000	8.281424e-004
4.479999999999992e+000	4.480000e+000	8.281487e-004
4.499999999999992e+000	4.500000e+000	8.281550e-004
4.519999999999992e+000	4.520000e+000	8.281614e-004
4.539999999999991e+000	4.540000e+000	8.281677e-004
4.559999999999991e+000	4.560000e+000	8.281740e-004
4.579999999999990e+000	4.580000e+000	8.281803e-004
4.599999999999990e+000	4.600000e+000	8.281866e-004
4.619999999999989e+000	4.620000e+000	8.281930e-004
4.639999999999989e+000	4.640000e+000	8.281993e-004
4.659999999999989e+000	4.660000e+000	8.282056e-004
4.679999999999988e+000	4.680000e+000	8.282119e-004
4.699999999999988e+000	4.700000e+000	8.282182e-004
4.719999999999987e+000	4.720000e+000	8.282245e-004
4.739999999999987e+000	4.740000e+000	8.282309e-004
4.759999999999987e+000	4.760000e+000	8.282372e-004
4.779999999999986e+000	4.780000e+000	8.282435e-004
4.799999999999986e+000	4.800000e+000	8.282498e-004
4.819999999999985e+000	4.820000e+000	8.282561e-004
4.839999999999985e+000	4.840000e+000	8.282624e-004
4.859999999999984e+000	4.860000e+000	8.282688e-004
4.879999999999984e+000	4.880000e+000	8.282750e-004
4.899999999999984e+000	4.900000e+000	8.282814e-004
4.919999999999983e+000	4.920000e+000	8.282877e-004
4.939999999999983e+000	4.940000e+000	8.282940e-004
4.959999999999982e+000	4.960000e+000	8.283003e-004
4.979999999999982e+000	4.980000e+000	8.283067e-004
4.999999999999981e+000	5.000000e+000	8.283130e-004
5.019999999999981e+000	5.020000e+000	8.283193e-004
5.039999999999981e+000	5.040000e+000	8.283256e-004
5.059999999999980e+000	5.060000e+000	8.283319e-004
5.079999999999980e+000	5.080000e+000	8.283383e-004
5.099999999999979e+000	5.100000e+000	8.283445e-004
5.119999999999979e+000	5.120000e+000	8.283509e-004
5.139999999999978e+000	5.140000e+000	8.283572e-004
5.159999999999978e+000	5.160000e+000	8.283635e-004
5.179999999999978e+000	5.180000e+000	8.283698e-004
5.199999999999977e+000	5.200000e+000	8.283762e-004
5.219999999999977e+000	5.220000e+000	8.283824e-004
5.239999999999976e+000	5.240000e+000	8.283888e-004
5.259999999999976e+000	5.260000e+000	8.283951e-004
5.279999999999975e+000	5.280000e+000	8.284014e-004
5.299999999999975e+000	5.300000e+000	8.284077e-004
5.319999999999975e+000	5.320000e+000	8.284140e-004
5.339999999999974e+000	5.340000e+000	8.284204e-004
5.359999999999974e+000	5.360000e+000	8.284267e-004
5.379999999999973e+000	5.380000e+000	8.284330e-004
5.399999999999973e+000	5.400000e+000	8.284393e-004
5.419999999999972e+000	5.420000e+000	8.284457e-004
5.439999999999972e+000	5.440000e+000	8.284519e-004
5.459999999999972e+000	5.460000e+000	8.284583e-004
5.479999999999971e+000	5.480000e+000	8.284646e-004
5.499999999999971e+000	5.500000e+000	8.284709e-004
5.519999999999970e+000	5.520000e+000	8.284772e-004
5.539999999999970e+000	5.540000e+000	8.284835e-004
5.559999999999969e+000	5.560000e+000	8.284898e-004
5.579999999999969e+000	5.580000e+000	8.284962e-004
5.599999999999969e+000	5.600000e+000	8.285025e-004
5.619999999999968e+000	5.620000e+000	8.285088e-004
5.639999999999968e+000	5.640000e+000	8.285152e-004
5.659999999999967e+000	5.660000e+000	8.285214e-004
5.679999999999967e+000	5.680000e+000	8.285278e-004
5.699999999999966e+000	5.700000e+000	8.285341e-004
5.719999999999966e+000	5.720000e+000	8.285404e-004
5.739999999999966e+000	5.740000e+000	8.285467e-004
5.759999999999965e+000	5.760000e+000	8.285530e-004
5.779999999999965e+000	5.780000e+000	8.285593e-004
5.799999999999964e+000	5.800000e+000	8.285657e-004
5.819999999999964e+000	5.820000e+000	8.285720e-004
5.839999999999963e+000	5.840000e+000	8.285783e-004
5.859999999999963e+000	5.860000e+000	8.285847e-004
5.879999999999963e+000	5.880000e+000	8.285909e-004
5.899999999999962e+000	5.900000e+000	8.285973e-004
5.919999999999962e+000	5.920000e+000	8.286036e-004
5.939999999999961e+000	5.940000e+000	8.286099e-004
5.959999999999961e+000	5.960000e+000	8.286162e-004
5.979999999999961e+000	5.980000e+000	8.286225e-004
5.999999999999960e+000	6.000000e+000	8.286288e-004
6.019999999999960e+000	6.020000e+000	8.286352e-004
6.039999999999959e+000	6.040000e+000	8.286415e-004
6.059999999999959e+000	6.060000e+000	8.286478e-004
6.079999999999958e+000	6.080000e+000	8.286541e-004
6.099999999999958e+000	6.100000e+000	8.286604e-004
6.119999999999958e+000	6.120000e+000	8.286668e-004
6.139999999999957e+000	6.140000e+000	8.286731e-004
6.159999999999957e+000	6.160000e+000	8.286794e-004
6.179999999999956e+000	6.180000e+000	8.286857e-004
6.199999999999956e+000	6.200000e+000	8.286920e-004
6.219999999999955e+000	6.220000e+000	8.286983e-004
6.239999999999955e+000	6.240000e+000	8.287047e-004
6.259999999999955e+000	6.260000e+000	8.287110e-004
6.279999999999954e+000	6.280000e+000	8.287173e-004
6.299999999999954e+000	6.300000e+000	8.287237e-004
6.319999999999953e+000	6.320000e+000	8.287299e-004
6.339999999999953e+000	6.340000e+000	8.287363e-004
6.359999999999952e+000	6.360000e+000	8.287426e-004
6.379999999999952e+000	6.380000e+000	8.287489e-004
6.399999999999952e+000	6.400000e+000	8.287552e-004
6.419999999999951e+000	6.420000e+000	8.287615e-004
6.439999999999951e+000	6.440000e+000	8.287678e-004
6.459999999999950e+000	6.460000e+000	8.287742e-004
6.479999999999950e+000	6.480000e+000	8.287805e-004
6.499999999999949e+000	6.500000e+000	8.287868e-004
6.519999999999949e+000	6.520000e+000	8.287932e-004
6.539999999999949e+000	6.540000e+000	8.287994e-004
6.559999999999948e+000	6.560000e+000	8.288058e-004
6.579999999999948e+000	6.580000e+000	8.288121e-004
6.599999999999947e+000	6.600000e+000	8.288184e-004
6.619999999999947e+000	6.620000e+000	8.288247e-004
6.639999999999946e+000	6.640000e+000	8.288310e-004
6.659999999999946e+000	6.660000e+000	8.288373e-004
6.679999999999946e+000	6.680000e+000	8.288437e-004
6.699999999999945e+000	6.700000e+000	8.288500e-004
6.719999999999945e+000	6.720000e+000	8.288563e-004
6.739999999999944e+000	6.740000e+000	8.288627e-004
6.759999999999944e+000	6.760000e+000	8.288689e-004
6.779999999999943e+000	6.780000e+000	8.288753e-004
6.799999999999943e+000	6.800000e+000	8.288816e-004
6.819999999999943e+000	6.820000e+000	8.288879e-004
6.839999999999942e+000	6.840000e+000	8.288942e-004
6.859999999999942e+000	6.860000e+000	8.289005e-004
6.879999999999941e+000	6.880000e+000	8.289069e-004
6.899999999999941e+000	6.900000e+000	8.289132e-004
6.919999999999940e+000	6.920000e+000	8.289195e-004
6.939999999999940e+000	6.940000e+000	8.289258e-004
6.959999999999940e+000	6.960000e+000	8.289322e-004
6.979999999999939e+000	6.980000e+000	8.289384e-004
6.999999999999939e+000	7.000000e+000	8.289448e-004
7.019999999999938e+000	7.020000e+000	8.289511e-004
7.039999999999938e+000	7.040000e+000	8.289574e-004
7.059999999999937e+000	7.060000e+000	8.289638e-004
7.079999999999937e+000	7.080000e+000	8.289700e-004
7.099999999999937e+000	7.100000e+000	8.289764e-004
7.119999999999936e+000	7.120000e+000	8.289827e-004
7.139999999999936e+000	7.140000e+000	8.289890e-004
7.159999999999935e+000	7.160000e+000	8.289953e-004
7.179999999999935e+000	7.180000e+000	8.290017e-004
7.199999999999935e+000	7.200000e+000	8.290080e-004
7.219999999999934e+000	7.220000e+000	8.290143e-004
7.239999999999934e+000	7.240000e+000	8.290206e-004
7.259999999999933e+000	7.260000e+000	8.290269e-004
7.279999999999933e+000	7.280000e+000	8.290333e-004
7.299999999999932e+000	7.300000e+000	8.290395e-004
7.319999999999932e+000	7.320000e+000	8.290459e-004
7.339999999999932e+000	7.340000e+000	8.290522e-004
7.359999999999931e+000	7.360000e+000	8.290585e-004
7.379999999999931e+000	7.380000e+000	8.290649e-004
7.399999999999930e+000	7.400000e+000	8.290712e-004
7.419999999999930e+000	7.420000e+000	8.290775e-004
7.439999999999929e+000	7.440000e+000	8.290838e-004
7.459999999999929e+000	7.460000e+000	8.290901e-004
7.479999999999929e+000	7.480000e+000	8.290964e-004
7.499999999999928e+000	7.500000e+000	8.291028e-004
7.519999999999928e+000	7.520000e+000	8.291091e-004
7.539999999999927e+000	7.540000e+000	8.291154e-004
7.559999999999927e+000	7.560000e+000	8.291217e-004
7.579999999999926e+000	7.580000e+000	8.291280e-004
7.599999999999926e+000	7.600000e+000	8.291344e-004
7.619999999999926e+000	7.620000e+000	8.291407e-004
7.639999999999925e+000	7.640000e+000	8.291470e-004
7.659999999999925e+000	7.660000e+000	8.291533e-004
7.679999999999924e+000	7.680000e+000	8.291596e-004
7.699999999999924e+000	7.700000e+000	8.291660e-004
7.719999999999923e+000	7.720000e+000	8.291723e-004
7.739999999999923e+000	7.740000e+000	8.291786e-004
7.759999999999923e+000	7.760000e+000	8.291849e-004
7.779999999999922e+000	7.780000e+000	8.291912e-004
7.799999999999922e+000	7.800000e+000	8.291976e-004
