v2	V(ds)	Id(J1)
0.000000000000000e+000	-3.780250e-009	3.566274e-012
1.000000000000000e-002	9.999996e-003	3.576756e-012
2.000000000000000e-002	2.000000e-002	3.587237e-012
3.000000000000000e-002	3.000000e-002	3.597717e-012
4.000000000000000e-002	4.000000e-002	3.608196e-012
5.000000000000000e-002	5.000000e-002	3.618675e-012
6.000000000000001e-002	5.999999e-002	3.629153e-012
7.000000000000001e-002	6.999999e-002	3.639631e-012
8.000000000000000e-002	8.000000e-002	3.650107e-012
9.000000000000000e-002	9.000000e-002	3.660583e-012
9.999999999999999e-002	9.999999e-002	3.671058e-012
1.100000000000000e-001	1.100000e-001	3.681532e-012
1.200000000000000e-001	1.200000e-001	3.692006e-012
1.300000000000000e-001	1.300000e-001	3.702479e-012
1.400000000000000e-001	1.400000e-001	3.712951e-012
1.500000000000000e-001	1.500000e-001	3.723422e-012
1.600000000000000e-001	1.600000e-001	3.733893e-012
1.700000000000000e-001	1.700000e-001	3.744363e-012
1.800000000000000e-001	1.800000e-001	3.754832e-012
1.900000000000000e-001	1.900000e-001	3.765301e-012
2.000000000000000e-001	2.000000e-001	3.775768e-012
2.100000000000001e-001	2.100000e-001	3.786236e-012
2.200000000000001e-001	2.200000e-001	3.796702e-012
2.300000000000001e-001	2.300000e-001	3.807168e-012
2.400000000000001e-001	2.400000e-001	3.817632e-012
2.500000000000001e-001	2.500000e-001	3.828097e-012
2.600000000000001e-001	2.600000e-001	3.838561e-012
2.700000000000001e-001	2.700000e-001	3.849023e-012
2.800000000000001e-001	2.800000e-001	3.859486e-012
2.900000000000001e-001	2.900000e-001	3.869947e-012
3.000000000000001e-001	3.000000e-001	3.880408e-012
3.100000000000001e-001	3.100000e-001	3.890868e-012
3.200000000000001e-001	3.200000e-001	3.901328e-012
3.300000000000001e-001	3.300000e-001	3.911786e-012
3.400000000000001e-001	3.400000e-001	3.922244e-012
3.500000000000001e-001	3.500000e-001	3.932702e-012
3.600000000000002e-001	3.600000e-001	3.943159e-012
3.700000000000002e-001	3.700000e-001	3.953615e-012
3.800000000000002e-001	3.800000e-001	3.964070e-012
3.900000000000002e-001	3.900000e-001	3.974525e-012
4.000000000000002e-001	4.000000e-001	3.984979e-012
4.100000000000002e-001	4.100000e-001	3.995432e-012
4.200000000000002e-001	4.200000e-001	4.005885e-012
4.300000000000002e-001	4.300000e-001	4.016338e-012
4.400000000000002e-001	4.400000e-001	4.026789e-012
4.500000000000002e-001	4.500000e-001	4.037240e-012
4.600000000000002e-001	4.600000e-001	4.047690e-012
4.700000000000003e-001	4.700000e-001	4.058140e-012
4.800000000000003e-001	4.800000e-001	4.068589e-012
4.900000000000003e-001	4.900000e-001	4.079037e-012
5.000000000000002e-001	5.000000e-001	4.089484e-012
5.100000000000002e-001	5.100000e-001	4.099931e-012
5.200000000000002e-001	5.200000e-001	4.110378e-012
5.300000000000003e-001	5.300000e-001	4.120824e-012
5.400000000000003e-001	5.400000e-001	4.131269e-012
5.500000000000003e-001	5.500000e-001	4.141713e-012
5.600000000000003e-001	5.600000e-001	4.152157e-012
5.700000000000003e-001	5.700000e-001	4.162600e-012
5.800000000000003e-001	5.800000e-001	4.173043e-012
5.900000000000003e-001	5.900000e-001	4.183485e-012
6.000000000000003e-001	6.000000e-001	4.193926e-012
6.100000000000003e-001	6.100000e-001	4.204367e-012
6.200000000000003e-001	6.200000e-001	4.214808e-012
6.300000000000003e-001	6.300000e-001	4.225247e-012
6.400000000000004e-001	6.400000e-001	4.235686e-012
6.500000000000004e-001	6.500000e-001	4.246125e-012
6.600000000000004e-001	6.600000e-001	4.256563e-012
6.700000000000004e-001	6.700000e-001	4.267000e-012
6.800000000000004e-001	6.800000e-001	4.277436e-012
6.900000000000004e-001	6.900000e-001	4.287872e-012
7.000000000000004e-001	7.000000e-001	4.298307e-012
7.100000000000004e-001	7.100000e-001	4.308742e-012
7.200000000000004e-001	7.200000e-001	4.319177e-012
7.300000000000004e-001	7.300000e-001	4.329610e-012
7.400000000000004e-001	7.400000e-001	4.340044e-012
7.500000000000004e-001	7.500000e-001	4.350476e-012
7.600000000000005e-001	7.600000e-001	4.360907e-012
7.700000000000005e-001	7.700000e-001	4.371339e-012
7.800000000000005e-001	7.800000e-001	4.381770e-012
7.900000000000005e-001	7.900000e-001	4.392200e-012
8.000000000000005e-001	8.000000e-001	4.402629e-012
8.100000000000005e-001	8.100000e-001	4.413058e-012
8.200000000000005e-001	8.200000e-001	4.423487e-012
8.300000000000005e-001	8.300000e-001	4.433915e-012
8.400000000000005e-001	8.400000e-001	4.444342e-012
8.500000000000005e-001	8.500000e-001	4.454769e-012
8.600000000000005e-001	8.600000e-001	4.465195e-012
8.700000000000006e-001	8.700000e-001	4.475621e-012
8.800000000000006e-001	8.800000e-001	4.486046e-012
8.900000000000006e-001	8.900000e-001	4.496470e-012
9.000000000000006e-001	9.000000e-001	4.506894e-012
9.100000000000006e-001	9.100000e-001	4.517318e-012
9.200000000000006e-001	9.200000e-001	4.527741e-012
9.300000000000006e-001	9.300000e-001	4.538163e-012
9.400000000000006e-001	9.400000e-001	4.548585e-012
9.500000000000006e-001	9.500000e-001	4.559006e-012
9.600000000000006e-001	9.600000e-001	4.569427e-012
9.700000000000006e-001	9.700000e-001	4.579847e-012
9.800000000000007e-001	9.800000e-001	4.590267e-012
9.900000000000007e-001	9.900000e-001	4.600686e-012
1.000000000000001e+000	1.000000e+000	4.611104e-012
1.010000000000001e+000	1.010000e+000	4.621522e-012
1.020000000000001e+000	1.020000e+000	4.631940e-012
1.030000000000001e+000	1.030000e+000	4.642357e-012
1.040000000000001e+000	1.040000e+000	4.652773e-012
1.050000000000001e+000	1.050000e+000	4.663189e-012
1.060000000000001e+000	1.060000e+000	4.673604e-012
1.070000000000001e+000	1.070000e+000	4.684019e-012
1.080000000000001e+000	1.080000e+000	4.694434e-012
1.090000000000001e+000	1.090000e+000	4.704847e-012
1.100000000000001e+000	1.100000e+000	4.715261e-012
1.110000000000001e+000	1.110000e+000	4.725673e-012
1.120000000000001e+000	1.120000e+000	4.736086e-012
1.130000000000001e+000	1.130000e+000	4.746497e-012
1.140000000000001e+000	1.140000e+000	4.756909e-012
1.150000000000001e+000	1.150000e+000	4.767319e-012
1.160000000000001e+000	1.160000e+000	4.777729e-012
1.170000000000001e+000	1.170000e+000	4.788140e-012
1.180000000000001e+000	1.180000e+000	4.798549e-012
1.190000000000001e+000	1.190000e+000	4.808957e-012
1.200000000000001e+000	1.200000e+000	4.819365e-012
1.210000000000001e+000	1.210000e+000	4.829773e-012
1.220000000000001e+000	1.220000e+000	4.840180e-012
1.230000000000001e+000	1.230000e+000	4.850587e-012
1.240000000000001e+000	1.240000e+000	4.860993e-012
1.250000000000001e+000	1.250000e+000	4.871399e-012
1.260000000000001e+000	1.260000e+000	4.881804e-012
1.270000000000001e+000	1.270000e+000	4.892209e-012
1.280000000000001e+000	1.280000e+000	4.902613e-012
1.290000000000001e+000	1.290000e+000	4.913017e-012
1.300000000000001e+000	1.300000e+000	4.923420e-012
1.310000000000001e+000	1.310000e+000	4.933823e-012
1.320000000000001e+000	1.320000e+000	4.944225e-012
1.330000000000001e+000	1.330000e+000	4.954627e-012
1.340000000000001e+000	1.340000e+000	4.965028e-012
1.350000000000001e+000	1.350000e+000	4.975429e-012
1.360000000000001e+000	1.360000e+000	4.985830e-012
1.370000000000001e+000	1.370000e+000	4.996230e-012
1.380000000000001e+000	1.380000e+000	5.006629e-012
1.390000000000001e+000	1.390000e+000	5.017028e-012
1.400000000000001e+000	1.400000e+000	5.027426e-012
1.410000000000001e+000	1.410000e+000	5.037825e-012
1.420000000000001e+000	1.420000e+000	5.048222e-012
1.430000000000001e+000	1.430000e+000	5.058619e-012
1.440000000000001e+000	1.440000e+000	5.069016e-012
1.450000000000001e+000	1.450000e+000	5.079412e-012
1.460000000000001e+000	1.460000e+000	5.089807e-012
1.470000000000001e+000	1.470000e+000	5.100203e-012
1.480000000000001e+000	1.480000e+000	5.110598e-012
1.490000000000001e+000	1.490000e+000	5.120992e-012
1.500000000000001e+000	1.500000e+000	5.131386e-012
1.510000000000001e+000	1.510000e+000	5.141779e-012
1.520000000000001e+000	1.520000e+000	5.152172e-012
1.530000000000001e+000	1.530000e+000	5.162565e-012
1.540000000000001e+000	1.540000e+000	5.172957e-012
1.550000000000001e+000	1.550000e+000	5.183348e-012
1.560000000000001e+000	1.560000e+000	5.193740e-012
1.570000000000001e+000	1.570000e+000	5.204130e-012
1.580000000000001e+000	1.580000e+000	5.214520e-012
1.590000000000001e+000	1.590000e+000	5.224910e-012
1.600000000000001e+000	1.600000e+000	5.235300e-012
1.610000000000001e+000	1.610000e+000	5.245688e-012
1.620000000000001e+000	1.620000e+000	5.256077e-012
1.630000000000001e+000	1.630000e+000	5.266465e-012
1.640000000000001e+000	1.640000e+000	5.276852e-012
1.650000000000001e+000	1.650000e+000	5.287239e-012
1.660000000000001e+000	1.660000e+000	5.297626e-012
1.670000000000001e+000	1.670000e+000	5.308013e-012
1.680000000000001e+000	1.680000e+000	5.318398e-012
1.690000000000001e+000	1.690000e+000	5.328784e-012
1.700000000000001e+000	1.700000e+000	5.339169e-012
1.710000000000001e+000	1.710000e+000	5.349553e-012
1.720000000000001e+000	1.720000e+000	5.359937e-012
1.730000000000001e+000	1.730000e+000	5.370321e-012
1.740000000000001e+000	1.740000e+000	5.380705e-012
1.750000000000001e+000	1.750000e+000	5.391087e-012
1.760000000000001e+000	1.760000e+000	5.401470e-012
1.770000000000001e+000	1.770000e+000	5.411852e-012
1.780000000000001e+000	1.780000e+000	5.422233e-012
1.790000000000001e+000	1.790000e+000	5.432614e-012
1.800000000000001e+000	1.800000e+000	5.442995e-012
1.810000000000001e+000	1.810000e+000	5.453376e-012
1.820000000000001e+000	1.820000e+000	5.463755e-012
1.830000000000001e+000	1.830000e+000	5.474135e-012
1.840000000000001e+000	1.840000e+000	5.484514e-012
1.850000000000001e+000	1.850000e+000	5.494892e-012
1.860000000000001e+000	1.860000e+000	5.505271e-012
1.870000000000001e+000	1.870000e+000	5.515649e-012
1.880000000000001e+000	1.880000e+000	5.526026e-012
1.890000000000002e+000	1.890000e+000	5.536403e-012
1.900000000000002e+000	1.900000e+000	5.546780e-012
1.910000000000002e+000	1.910000e+000	5.557156e-012
1.920000000000002e+000	1.920000e+000	5.567532e-012
1.930000000000002e+000	1.930000e+000	5.577907e-012
1.940000000000002e+000	1.940000e+000	5.588282e-012
1.950000000000002e+000	1.950000e+000	5.598657e-012
1.960000000000002e+000	1.960000e+000	5.609031e-012
1.970000000000002e+000	1.970000e+000	5.619404e-012
1.980000000000002e+000	1.980000e+000	5.629778e-012
1.990000000000002e+000	1.990000e+000	5.640151e-012
2.000000000000001e+000	2.000000e+000	5.650523e-012
2.010000000000001e+000	2.010000e+000	5.660895e-012
2.020000000000001e+000	2.020000e+000	5.671267e-012
2.030000000000001e+000	2.030000e+000	5.681639e-012
2.040000000000001e+000	2.040000e+000	5.692010e-012
2.050000000000000e+000	2.050000e+000	5.702380e-012
2.060000000000000e+000	2.060000e+000	5.712751e-012
2.070000000000000e+000	2.070000e+000	5.723120e-012
2.080000000000000e+000	2.080000e+000	5.733490e-012
2.089999999999999e+000	2.090000e+000	5.743859e-012
2.099999999999999e+000	2.100000e+000	5.754227e-012
2.109999999999999e+000	2.110000e+000	5.764596e-012
2.119999999999999e+000	2.120000e+000	5.774964e-012
2.129999999999999e+000	2.130000e+000	5.785331e-012
2.139999999999998e+000	2.140000e+000	5.795699e-012
2.149999999999998e+000	2.150000e+000	5.806065e-012
2.159999999999998e+000	2.160000e+000	5.816432e-012
2.169999999999998e+000	2.170000e+000	5.826797e-012
2.179999999999998e+000	2.180000e+000	5.837163e-012
2.189999999999997e+000	2.190000e+000	5.847529e-012
2.199999999999997e+000	2.200000e+000	5.857893e-012
2.209999999999997e+000	2.210000e+000	5.868258e-012
2.219999999999997e+000	2.220000e+000	5.878622e-012
2.229999999999996e+000	2.230000e+000	5.888985e-012
2.239999999999996e+000	2.240000e+000	5.899349e-012
2.249999999999996e+000	2.250000e+000	5.909712e-012
2.259999999999996e+000	2.260000e+000	5.920075e-012
2.269999999999996e+000	2.270000e+000	5.930437e-012
2.279999999999995e+000	2.280000e+000	5.940799e-012
2.289999999999995e+000	2.290000e+000	5.951160e-012
2.299999999999995e+000	2.300000e+000	5.961522e-012
2.309999999999995e+000	2.310000e+000	5.971882e-012
2.319999999999995e+000	2.320000e+000	5.982243e-012
2.329999999999994e+000	2.330000e+000	5.992603e-012
2.339999999999994e+000	2.340000e+000	6.002962e-012
2.349999999999994e+000	2.350000e+000	6.013322e-012
2.359999999999994e+000	2.360000e+000	6.023681e-012
2.369999999999993e+000	2.370000e+000	6.034040e-012
2.379999999999993e+000	2.380000e+000	6.044398e-012
2.389999999999993e+000	2.390000e+000	6.054756e-012
2.399999999999993e+000	2.400000e+000	6.065113e-012
2.409999999999993e+000	2.410000e+000	6.075470e-012
2.419999999999992e+000	2.420000e+000	6.085827e-012
2.429999999999992e+000	2.430000e+000	6.096183e-012
2.439999999999992e+000	2.440000e+000	6.106540e-012
2.449999999999992e+000	2.450000e+000	6.116896e-012
2.459999999999992e+000	2.460000e+000	6.127251e-012
2.469999999999991e+000	2.470000e+000	6.137606e-012
2.479999999999991e+000	2.480000e+000	6.147961e-012
2.489999999999991e+000	2.490000e+000	6.158315e-012
2.499999999999991e+000	2.500000e+000	6.168669e-012
2.509999999999991e+000	2.510000e+000	6.179023e-012
2.519999999999990e+000	2.520000e+000	6.189376e-012
2.529999999999990e+000	2.530000e+000	6.199729e-012
2.539999999999990e+000	2.540000e+000	6.210082e-012
2.549999999999990e+000	2.550000e+000	6.220434e-012
2.559999999999989e+000	2.560000e+000	6.230786e-012
2.569999999999989e+000	2.570000e+000	6.241138e-012
2.579999999999989e+000	2.580000e+000	6.251489e-012
2.589999999999989e+000	2.590000e+000	6.261840e-012
2.599999999999989e+000	2.600000e+000	6.272191e-012
2.609999999999988e+000	2.610000e+000	6.282541e-012
2.619999999999988e+000	2.620000e+000	6.292891e-012
2.629999999999988e+000	2.630000e+000	6.303240e-012
2.639999999999988e+000	2.640000e+000	6.313589e-012
2.649999999999988e+000	2.650000e+000	6.323938e-012
2.659999999999987e+000	2.660000e+000	6.334287e-012
2.669999999999987e+000	2.670000e+000	6.344635e-012
2.679999999999987e+000	2.680000e+000	6.354983e-012
2.689999999999987e+000	2.690000e+000	6.365331e-012
2.699999999999986e+000	2.700000e+000	6.375678e-012
2.709999999999986e+000	2.710000e+000	6.386025e-012
2.719999999999986e+000	2.720000e+000	6.396372e-012
2.729999999999986e+000	2.730000e+000	6.406718e-012
2.739999999999986e+000	2.740000e+000	6.417063e-012
2.749999999999985e+000	2.750000e+000	6.427409e-012
2.759999999999985e+000	2.760000e+000	6.437754e-012
2.769999999999985e+000	2.770000e+000	6.448099e-012
2.779999999999985e+000	2.780000e+000	6.458444e-012
2.789999999999985e+000	2.790000e+000	6.468789e-012
2.799999999999984e+000	2.800000e+000	6.479132e-012
2.809999999999984e+000	2.810000e+000	6.489476e-012
2.819999999999984e+000	2.820000e+000	6.499819e-012
2.829999999999984e+000	2.830000e+000	6.510163e-012
2.839999999999983e+000	2.840000e+000	6.520505e-012
2.849999999999983e+000	2.850000e+000	6.530847e-012
2.859999999999983e+000	2.860000e+000	6.541189e-012
2.869999999999983e+000	2.870000e+000	6.551531e-012
2.879999999999983e+000	2.880000e+000	6.561873e-012
2.889999999999982e+000	2.890000e+000	6.572214e-012
2.899999999999982e+000	2.900000e+000	6.582555e-012
2.909999999999982e+000	2.910000e+000	6.592895e-012
2.919999999999982e+000	2.920000e+000	6.603235e-012
2.929999999999982e+000	2.930000e+000	6.613575e-012
2.939999999999981e+000	2.940000e+000	6.623915e-012
2.949999999999981e+000	2.950000e+000	6.634254e-012
2.959999999999981e+000	2.960000e+000	6.644593e-012
2.969999999999981e+000	2.970000e+000	6.654931e-012
2.979999999999980e+000	2.980000e+000	6.665270e-012
2.989999999999980e+000	2.990000e+000	6.675608e-012
2.999999999999980e+000	3.000000e+000	6.685945e-012
3.009999999999980e+000	3.010000e+000	6.696283e-012
3.019999999999980e+000	3.020000e+000	6.706620e-012
3.029999999999979e+000	3.030000e+000	6.716956e-012
3.039999999999979e+000	3.040000e+000	6.727293e-012
3.049999999999979e+000	3.050000e+000	6.737629e-012
3.059999999999979e+000	3.060000e+000	6.747965e-012
3.069999999999979e+000	3.070000e+000	6.758301e-012
3.079999999999978e+000	3.080000e+000	6.768636e-012
3.089999999999978e+000	3.090000e+000	6.778971e-012
3.099999999999978e+000	3.100000e+000	6.789305e-012
3.109999999999978e+000	3.110000e+000	6.799640e-012
3.119999999999978e+000	3.120000e+000	6.809974e-012
3.129999999999977e+000	3.130000e+000	6.820307e-012
3.139999999999977e+000	3.140000e+000	6.830641e-012
3.149999999999977e+000	3.150000e+000	6.840974e-012
3.159999999999977e+000	3.160000e+000	6.851307e-012
3.169999999999976e+000	3.170000e+000	6.861639e-012
3.179999999999976e+000	3.180000e+000	6.871972e-012
3.189999999999976e+000	3.190000e+000	6.882304e-012
3.199999999999976e+000	3.200000e+000	6.892635e-012
3.209999999999976e+000	3.210000e+000	6.902966e-012
3.219999999999975e+000	3.220000e+000	6.913298e-012
3.229999999999975e+000	3.230000e+000	6.923628e-012
3.239999999999975e+000	3.240000e+000	6.933959e-012
3.249999999999975e+000	3.250000e+000	6.944289e-012
3.259999999999975e+000	3.260000e+000	6.954619e-012
3.269999999999974e+000	3.270000e+000	6.964949e-012
3.279999999999974e+000	3.280000e+000	6.975278e-012
3.289999999999974e+000	3.290000e+000	6.985607e-012
3.299999999999974e+000	3.300000e+000	6.995936e-012
3.309999999999973e+000	3.310000e+000	7.006264e-012
3.319999999999973e+000	3.320000e+000	7.016593e-012
3.329999999999973e+000	3.330000e+000	7.026920e-012
3.339999999999973e+000	3.340000e+000	7.037248e-012
3.349999999999973e+000	3.350000e+000	7.047575e-012
3.359999999999972e+000	3.360000e+000	7.057902e-012
3.369999999999972e+000	3.370000e+000	7.068229e-012
3.379999999999972e+000	3.380000e+000	7.078556e-012
3.389999999999972e+000	3.390000e+000	7.088882e-012
3.399999999999972e+000	3.400000e+000	7.099208e-012
3.409999999999971e+000	3.410000e+000	7.109533e-012
3.419999999999971e+000	3.420000e+000	7.119859e-012
3.429999999999971e+000	3.430000e+000	7.130184e-012
3.439999999999971e+000	3.440000e+000	7.140509e-012
3.449999999999970e+000	3.450000e+000	7.150833e-012
3.459999999999970e+000	3.460000e+000	7.161158e-012
3.469999999999970e+000	3.470000e+000	7.171481e-012
3.479999999999970e+000	3.480000e+000	7.181805e-012
3.489999999999970e+000	3.490000e+000	7.192128e-012
3.499999999999969e+000	3.500000e+000	7.202452e-012
3.509999999999969e+000	3.510000e+000	7.212774e-012
3.519999999999969e+000	3.520000e+000	7.223097e-012
3.529999999999969e+000	3.530000e+000	7.233419e-012
3.539999999999969e+000	3.540000e+000	7.243741e-012
3.549999999999968e+000	3.550000e+000	7.254063e-012
3.559999999999968e+000	3.560000e+000	7.264384e-012
3.569999999999968e+000	3.570000e+000	7.274706e-012
3.579999999999968e+000	3.580000e+000	7.285027e-012
3.589999999999967e+000	3.590000e+000	7.295347e-012
3.599999999999967e+000	3.600000e+000	7.305668e-012
3.609999999999967e+000	3.610000e+000	7.315988e-012
3.619999999999967e+000	3.620000e+000	7.326308e-012
3.629999999999967e+000	3.630000e+000	7.336628e-012
3.639999999999966e+000	3.640000e+000	7.346947e-012
3.649999999999966e+000	3.650000e+000	7.357266e-012
3.659999999999966e+000	3.660000e+000	7.367585e-012
3.669999999999966e+000	3.670000e+000	7.377903e-012
3.679999999999966e+000	3.680000e+000	7.388222e-012
3.689999999999965e+000	3.690000e+000	7.398539e-012
3.699999999999965e+000	3.700000e+000	7.408857e-012
3.709999999999965e+000	3.710000e+000	7.419175e-012
3.719999999999965e+000	3.720000e+000	7.429492e-012
3.729999999999965e+000	3.730000e+000	7.439809e-012
3.739999999999964e+000	3.740000e+000	7.450126e-012
3.749999999999964e+000	3.750000e+000	7.460442e-012
3.759999999999964e+000	3.760000e+000	7.470758e-012
3.769999999999964e+000	3.770000e+000	7.481074e-012
3.779999999999963e+000	3.780000e+000	7.491390e-012
3.789999999999963e+000	3.790000e+000	7.501705e-012
3.799999999999963e+000	3.800000e+000	7.512021e-012
3.809999999999963e+000	3.810000e+000	7.522335e-012
3.819999999999963e+000	3.820000e+000	7.532650e-012
3.829999999999962e+000	3.830000e+000	7.542965e-012
3.839999999999962e+000	3.840000e+000	7.553278e-012
3.849999999999962e+000	3.850000e+000	7.563592e-012
3.859999999999962e+000	3.860000e+000	7.573906e-012
3.869999999999962e+000	3.870000e+000	7.584220e-012
3.879999999999961e+000	3.880000e+000	7.594533e-012
3.889999999999961e+000	3.890000e+000	7.604846e-012
3.899999999999961e+000	3.900000e+000	7.615158e-012
