vin	V(be)	Ic(Q1)
0.000000000000000e+000	0.000000e+000	1.369983e-013
2.000000000000000e-005	2.000000e-005	1.369738e-013
4.000000000000000e-005	4.000000e-005	1.369738e-013
6.000000000000001e-005	6.000000e-005	1.369656e-013
8.000000000000001e-005	8.000000e-005	1.369574e-013
1.000000000000000e-004	1.000000e-004	1.369411e-013
1.200000000000000e-004	1.200000e-004	1.369411e-013
1.400000000000000e-004	1.400000e-004	1.369166e-013
1.600000000000000e-004	1.600000e-004	1.369003e-013
1.800000000000000e-004	1.800000e-004	1.369085e-013
2.000000000000000e-004	2.000000e-004	1.369003e-013
2.200000000000000e-004	2.200000e-004	1.368840e-013
2.400000000000000e-004	2.400000e-004	1.368840e-013
2.600000000000000e-004	2.600000e-004	1.368595e-013
2.800000000000000e-004	2.800000e-004	1.368513e-013
3.000000000000000e-004	3.000000e-004	1.368513e-013
3.200000000000000e-004	3.200000e-004	1.368431e-013
3.400000000000000e-004	3.400000e-004	1.368187e-013
3.600000000000000e-004	3.600000e-004	1.368187e-013
3.800000000000000e-004	3.800000e-004	1.368105e-013
4.000000000000000e-004	4.000000e-004	1.367942e-013
4.200000000000000e-004	4.200000e-004	1.367779e-013
4.400000000000000e-004	4.400000e-004	1.367860e-013
4.600000000000000e-004	4.600000e-004	1.367779e-013
4.800000000000000e-004	4.800000e-004	1.367452e-013
5.000000000000000e-004	5.000000e-004	1.367533e-013
5.200000000000001e-004	5.200000e-004	1.367533e-013
5.400000000000001e-004	5.400000e-004	1.367289e-013
5.600000000000002e-004	5.600000e-004	1.367289e-013
5.800000000000002e-004	5.800000e-004	1.367044e-013
6.000000000000003e-004	6.000000e-004	1.366881e-013
6.200000000000003e-004	6.200000e-004	1.366962e-013
6.400000000000004e-004	6.400000e-004	1.366881e-013
6.600000000000004e-004	6.600000e-004	1.366717e-013
6.800000000000005e-004	6.800000e-004	1.366636e-013
7.000000000000005e-004	7.000000e-004	1.366554e-013
7.200000000000006e-004	7.200000e-004	1.366472e-013
7.400000000000006e-004	7.400000e-004	1.366391e-013
7.600000000000007e-004	7.600000e-004	1.366309e-013
7.800000000000007e-004	7.800000e-004	1.366146e-013
8.000000000000008e-004	8.000000e-004	1.366064e-013
8.200000000000009e-004	8.200000e-004	1.365983e-013
8.400000000000009e-004	8.400000e-004	1.365819e-013
8.600000000000010e-004	8.600000e-004	1.365819e-013
8.800000000000010e-004	8.800000e-004	1.365656e-013
9.000000000000011e-004	9.000000e-004	1.365574e-013
9.200000000000011e-004	9.200000e-004	1.365493e-013
9.400000000000012e-004	9.400000e-004	1.365493e-013
9.600000000000012e-004	9.600000e-004	1.365411e-013
9.800000000000013e-004	9.800000e-004	1.365248e-013
1.000000000000001e-003	1.000000e-003	1.365003e-013
1.020000000000001e-003	1.020000e-003	1.365166e-013
1.040000000000001e-003	1.040000e-003	1.364921e-013
1.060000000000002e-003	1.060000e-003	1.364758e-013
1.080000000000002e-003	1.080000e-003	1.364758e-013
1.100000000000002e-003	1.100000e-003	1.364758e-013
1.120000000000002e-003	1.120000e-003	1.364431e-013
1.140000000000002e-003	1.140000e-003	1.364513e-013
1.160000000000002e-003	1.160000e-003	1.364350e-013
1.180000000000002e-003	1.180000e-003	1.364350e-013
1.200000000000002e-003	1.200000e-003	1.364268e-013
1.220000000000002e-003	1.220000e-003	1.364023e-013
1.240000000000002e-003	1.240000e-003	1.364023e-013
1.260000000000002e-003	1.260000e-003	1.364023e-013
1.280000000000002e-003	1.280000e-003	1.363942e-013
1.300000000000002e-003	1.300000e-003	1.363697e-013
1.320000000000002e-003	1.320000e-003	1.363533e-013
1.340000000000002e-003	1.340000e-003	1.363533e-013
1.360000000000002e-003	1.360000e-003	1.363452e-013
1.380000000000002e-003	1.380000e-003	1.363289e-013
1.400000000000002e-003	1.400000e-003	1.363370e-013
1.420000000000002e-003	1.420000e-003	1.363289e-013
1.440000000000003e-003	1.440000e-003	1.362962e-013
1.460000000000003e-003	1.460000e-003	1.362962e-013
1.480000000000003e-003	1.480000e-003	1.362880e-013
1.500000000000003e-003	1.500000e-003	1.362962e-013
1.520000000000003e-003	1.520000e-003	1.362635e-013
1.540000000000003e-003	1.540000e-003	1.362554e-013
1.560000000000003e-003	1.560000e-003	1.362717e-013
1.580000000000003e-003	1.580000e-003	1.362472e-013
1.600000000000003e-003	1.600000e-003	1.362309e-013
1.620000000000003e-003	1.620000e-003	1.362309e-013
1.640000000000003e-003	1.640000e-003	1.362227e-013
1.660000000000003e-003	1.660000e-003	1.362064e-013
1.680000000000003e-003	1.680000e-003	1.361901e-013
1.700000000000003e-003	1.700000e-003	1.362064e-013
1.720000000000003e-003	1.720000e-003	1.361901e-013
1.740000000000003e-003	1.740000e-003	1.361574e-013
1.760000000000003e-003	1.760000e-003	1.361737e-013
1.780000000000003e-003	1.780000e-003	1.361574e-013
1.800000000000003e-003	1.800000e-003	1.361411e-013
1.820000000000004e-003	1.820000e-003	1.361329e-013
1.840000000000004e-003	1.840000e-003	1.361329e-013
1.860000000000004e-003	1.860000e-003	1.361248e-013
1.880000000000004e-003	1.880000e-003	1.360921e-013
1.900000000000004e-003	1.900000e-003	1.361085e-013
1.920000000000004e-003	1.920000e-003	1.361003e-013
1.940000000000004e-003	1.940000e-003	1.360676e-013
1.960000000000004e-003	1.960000e-003	1.360758e-013
1.980000000000004e-003	1.980000e-003	1.360676e-013
2.000000000000004e-003	2.000000e-003	1.360513e-013
2.020000000000004e-003	2.020000e-003	1.360350e-013
2.040000000000004e-003	2.040000e-003	1.360513e-013
2.060000000000004e-003	2.060000e-003	1.360350e-013
2.080000000000004e-003	2.080000e-003	1.360023e-013
2.100000000000004e-003	2.100000e-003	1.360105e-013
2.120000000000004e-003	2.120000e-003	1.360105e-013
2.140000000000004e-003	2.140000e-003	1.359942e-013
2.160000000000004e-003	2.160000e-003	1.359697e-013
2.180000000000004e-003	2.180000e-003	1.359860e-013
2.200000000000005e-003	2.200000e-003	1.359615e-013
2.220000000000005e-003	2.220000e-003	1.359615e-013
2.240000000000005e-003	2.240000e-003	1.359615e-013
2.260000000000005e-003	2.260000e-003	1.359370e-013
2.280000000000005e-003	2.280000e-003	1.359289e-013
2.300000000000005e-003	2.300000e-003	1.359289e-013
2.320000000000005e-003	2.320000e-003	1.359125e-013
2.340000000000005e-003	2.340000e-003	1.359044e-013
2.360000000000005e-003	2.360000e-003	1.358962e-013
2.380000000000005e-003	2.380000e-003	1.358880e-013
2.400000000000005e-003	2.400000e-003	1.358880e-013
2.420000000000005e-003	2.420000e-003	1.358717e-013
2.440000000000005e-003	2.440000e-003	1.358554e-013
2.460000000000005e-003	2.460000e-003	1.358554e-013
2.480000000000005e-003	2.480000e-003	1.358391e-013
2.500000000000005e-003	2.500000e-003	1.358391e-013
2.520000000000005e-003	2.520000e-003	1.358227e-013
2.540000000000005e-003	2.540000e-003	1.358309e-013
2.560000000000005e-003	2.560000e-003	1.358064e-013
2.580000000000006e-003	2.580000e-003	1.358064e-013
2.600000000000006e-003	2.600000e-003	1.357901e-013
2.620000000000006e-003	2.620000e-003	1.357901e-013
2.640000000000006e-003	2.640000e-003	1.357819e-013
2.660000000000006e-003	2.660000e-003	1.357737e-013
2.680000000000006e-003	2.680000e-003	1.357656e-013
2.700000000000006e-003	2.700000e-003	1.357574e-013
2.720000000000006e-003	2.720000e-003	1.357329e-013
2.740000000000006e-003	2.740000e-003	1.357166e-013
2.760000000000006e-003	2.760000e-003	1.357329e-013
2.780000000000006e-003	2.780000e-003	1.357084e-013
2.800000000000006e-003	2.800000e-003	1.357003e-013
2.820000000000006e-003	2.820000e-003	1.357003e-013
2.840000000000006e-003	2.840000e-003	1.356839e-013
2.860000000000006e-003	2.860000e-003	1.356758e-013
2.880000000000006e-003	2.880000e-003	1.356758e-013
2.900000000000006e-003	2.900000e-003	1.356513e-013
2.920000000000006e-003	2.920000e-003	1.356595e-013
2.940000000000006e-003	2.940000e-003	1.356431e-013
2.960000000000007e-003	2.960000e-003	1.356431e-013
2.980000000000007e-003	2.980000e-003	1.356186e-013
3.000000000000007e-003	3.000000e-003	1.356186e-013
3.020000000000007e-003	3.020000e-003	1.356105e-013
3.040000000000007e-003	3.040000e-003	1.355941e-013
3.060000000000007e-003	3.060000e-003	1.355941e-013
3.080000000000007e-003	3.080000e-003	1.355941e-013
3.100000000000007e-003	3.100000e-003	1.355778e-013
3.120000000000007e-003	3.120000e-003	1.355778e-013
3.140000000000007e-003	3.140000e-003	1.355452e-013
3.160000000000007e-003	3.160000e-003	1.355615e-013
3.180000000000007e-003	3.180000e-003	1.355533e-013
3.200000000000007e-003	3.200000e-003	1.355288e-013
3.220000000000007e-003	3.220000e-003	1.355288e-013
3.240000000000007e-003	3.240000e-003	1.355125e-013
3.260000000000007e-003	3.260000e-003	1.355043e-013
3.280000000000007e-003	3.280000e-003	1.355207e-013
3.300000000000007e-003	3.300000e-003	1.354880e-013
3.320000000000007e-003	3.320000e-003	1.354880e-013
3.340000000000008e-003	3.340000e-003	1.354880e-013
3.360000000000008e-003	3.360000e-003	1.354717e-013
3.380000000000008e-003	3.380000e-003	1.354635e-013
3.400000000000008e-003	3.400000e-003	1.354554e-013
3.420000000000008e-003	3.420000e-003	1.354554e-013
3.440000000000008e-003	3.440000e-003	1.354227e-013
3.460000000000008e-003	3.460000e-003	1.354391e-013
3.480000000000008e-003	3.480000e-003	1.354146e-013
3.500000000000008e-003	3.500000e-003	1.354227e-013
3.520000000000008e-003	3.520000e-003	1.354064e-013
3.540000000000008e-003	3.540000e-003	1.353901e-013
3.560000000000008e-003	3.560000e-003	1.353901e-013
3.580000000000008e-003	3.580000e-003	1.353819e-013
3.600000000000008e-003	3.600000e-003	1.353656e-013
3.620000000000008e-003	3.620000e-003	1.353656e-013
3.640000000000008e-003	3.640000e-003	1.353574e-013
3.660000000000008e-003	3.660000e-003	1.353329e-013
3.680000000000008e-003	3.680000e-003	1.353493e-013
3.700000000000008e-003	3.700000e-003	1.353329e-013
3.720000000000009e-003	3.720000e-003	1.353329e-013
3.740000000000009e-003	3.740000e-003	1.353248e-013
3.760000000000009e-003	3.760000e-003	1.353003e-013
3.780000000000009e-003	3.780000e-003	1.353003e-013
3.800000000000009e-003	3.800000e-003	1.352839e-013
3.820000000000009e-003	3.820000e-003	1.352921e-013
3.840000000000009e-003	3.840000e-003	1.352758e-013
3.860000000000009e-003	3.860000e-003	1.352676e-013
3.880000000000009e-003	3.880000e-003	1.352676e-013
3.900000000000009e-003	3.900000e-003	1.352513e-013
3.920000000000009e-003	3.920000e-003	1.352431e-013
3.940000000000009e-003	3.940000e-003	1.352431e-013
3.960000000000009e-003	3.960000e-003	1.352350e-013
3.980000000000009e-003	3.980000e-003	1.352105e-013
4.000000000000009e-003	4.000000e-003	1.352268e-013
4.020000000000009e-003	4.020000e-003	1.351941e-013
4.040000000000009e-003	4.040000e-003	1.352105e-013
4.060000000000009e-003	4.060000e-003	1.351778e-013
4.080000000000009e-003	4.080000e-003	1.351778e-013
4.100000000000009e-003	4.100000e-003	1.351778e-013
4.120000000000009e-003	4.120000e-003	1.351615e-013
4.140000000000009e-003	4.140000e-003	1.351615e-013
4.160000000000009e-003	4.160000e-003	1.351533e-013
4.180000000000009e-003	4.180000e-003	1.351370e-013
4.200000000000009e-003	4.200000e-003	1.351370e-013
4.220000000000009e-003	4.220000e-003	1.351125e-013
4.240000000000009e-003	4.240000e-003	1.351288e-013
4.260000000000009e-003	4.260000e-003	1.351043e-013
4.280000000000010e-003	4.280000e-003	1.350962e-013
4.300000000000010e-003	4.300000e-003	1.350880e-013
4.320000000000010e-003	4.320000e-003	1.350799e-013
4.340000000000010e-003	4.340000e-003	1.350799e-013
4.360000000000010e-003	4.360000e-003	1.350717e-013
4.380000000000010e-003	4.380000e-003	1.350554e-013
4.400000000000010e-003	4.400000e-003	1.350554e-013
4.420000000000010e-003	4.420000e-003	1.350472e-013
4.440000000000010e-003	4.440000e-003	1.350472e-013
4.460000000000010e-003	4.460000e-003	1.350227e-013
4.480000000000010e-003	4.480000e-003	1.350227e-013
4.500000000000010e-003	4.500000e-003	1.350227e-013
4.520000000000010e-003	4.520000e-003	1.350145e-013
4.540000000000010e-003	4.540000e-003	1.350145e-013
4.560000000000010e-003	4.560000e-003	1.349901e-013
4.580000000000010e-003	4.580000e-003	1.349737e-013
4.600000000000010e-003	4.600000e-003	1.349901e-013
4.620000000000010e-003	4.620000e-003	1.349656e-013
4.640000000000010e-003	4.640000e-003	1.349737e-013
4.660000000000011e-003	4.660000e-003	1.349574e-013
4.680000000000011e-003	4.680000e-003	1.349492e-013
4.700000000000011e-003	4.700000e-003	1.349411e-013
4.720000000000011e-003	4.720000e-003	1.349329e-013
4.740000000000011e-003	4.740000e-003	1.349329e-013
4.760000000000011e-003	4.760000e-003	1.349247e-013
4.780000000000011e-003	4.780000e-003	1.349084e-013
4.800000000000011e-003	4.800000e-003	1.349003e-013
4.820000000000011e-003	4.820000e-003	1.349003e-013
4.840000000000011e-003	4.840000e-003	1.348839e-013
4.860000000000011e-003	4.860000e-003	1.348758e-013
4.880000000000011e-003	4.880000e-003	1.348758e-013
4.900000000000011e-003	4.900000e-003	1.348676e-013
4.920000000000011e-003	4.920000e-003	1.348676e-013
4.940000000000011e-003	4.940000e-003	1.348513e-013
4.960000000000011e-003	4.960000e-003	1.348350e-013
4.980000000000011e-003	4.980000e-003	1.348431e-013
5.000000000000011e-003	5.000000e-003	1.348186e-013
5.020000000000011e-003	5.020000e-003	1.348186e-013
5.040000000000012e-003	5.040000e-003	1.348186e-013
5.060000000000012e-003	5.060000e-003	1.348023e-013
5.080000000000012e-003	5.080000e-003	1.348023e-013
5.100000000000012e-003	5.100000e-003	1.347860e-013
5.120000000000012e-003	5.120000e-003	1.347860e-013
5.140000000000012e-003	5.140000e-003	1.347697e-013
5.160000000000012e-003	5.160000e-003	1.347697e-013
5.180000000000012e-003	5.180000e-003	1.347615e-013
5.200000000000012e-003	5.200000e-003	1.347533e-013
5.220000000000012e-003	5.220000e-003	1.347533e-013
5.240000000000012e-003	5.240000e-003	1.347207e-013
5.260000000000012e-003	5.260000e-003	1.347207e-013
5.280000000000012e-003	5.280000e-003	1.347288e-013
5.300000000000012e-003	5.300000e-003	1.347288e-013
5.320000000000012e-003	5.320000e-003	1.347125e-013
5.340000000000012e-003	5.340000e-003	1.347125e-013
5.360000000000012e-003	5.360000e-003	1.347043e-013
5.380000000000012e-003	5.380000e-003	1.346880e-013
5.400000000000012e-003	5.400000e-003	1.346799e-013
5.420000000000013e-003	5.420000e-003	1.346799e-013
5.440000000000013e-003	5.440000e-003	1.346635e-013
5.460000000000013e-003	5.460000e-003	1.346554e-013
5.480000000000013e-003	5.480000e-003	1.346554e-013
5.500000000000013e-003	5.500000e-003	1.346309e-013
5.520000000000013e-003	5.520000e-003	1.346472e-013
5.540000000000013e-003	5.540000e-003	1.346309e-013
5.560000000000013e-003	5.560000e-003	1.346390e-013
5.580000000000013e-003	5.580000e-003	1.346145e-013
5.600000000000013e-003	5.600000e-003	1.346145e-013
5.620000000000013e-003	5.620000e-003	1.346145e-013
5.640000000000013e-003	5.640000e-003	1.345982e-013
5.660000000000013e-003	5.660000e-003	1.345819e-013
5.680000000000013e-003	5.680000e-003	1.345901e-013
5.700000000000013e-003	5.700000e-003	1.345737e-013
5.720000000000013e-003	5.720000e-003	1.345656e-013
5.740000000000013e-003	5.740000e-003	1.345656e-013
5.760000000000013e-003	5.760000e-003	1.345492e-013
5.780000000000013e-003	5.780000e-003	1.345492e-013
5.800000000000014e-003	5.800000e-003	1.345411e-013
5.820000000000014e-003	5.820000e-003	1.345329e-013
5.840000000000014e-003	5.840000e-003	1.345329e-013
5.860000000000014e-003	5.860000e-003	1.345247e-013
5.880000000000014e-003	5.880000e-003	1.345003e-013
5.900000000000014e-003	5.900000e-003	1.345166e-013
5.920000000000014e-003	5.920000e-003	1.345084e-013
5.940000000000014e-003	5.940000e-003	1.345003e-013
5.960000000000014e-003	5.960000e-003	1.344839e-013
5.980000000000014e-003	5.980000e-003	1.344676e-013
6.000000000000014e-003	6.000000e-003	1.344839e-013
6.020000000000014e-003	6.020000e-003	1.344594e-013
6.040000000000014e-003	6.040000e-003	1.344594e-013
6.060000000000014e-003	6.060000e-003	1.344513e-013
6.080000000000014e-003	6.080000e-003	1.344513e-013
6.100000000000014e-003	6.100000e-003	1.344186e-013
6.120000000000014e-003	6.120000e-003	1.344349e-013
6.140000000000014e-003	6.140000e-003	1.344268e-013
6.160000000000014e-003	6.160000e-003	1.344268e-013
6.180000000000015e-003	6.180000e-003	1.344105e-013
6.200000000000015e-003	6.200000e-003	1.344105e-013
6.220000000000015e-003	6.220000e-003	1.343860e-013
6.240000000000015e-003	6.240000e-003	1.344023e-013
6.260000000000015e-003	6.260000e-003	1.343778e-013
6.280000000000015e-003	6.280000e-003	1.343778e-013
6.300000000000015e-003	6.300000e-003	1.343778e-013
6.320000000000015e-003	6.320000e-003	1.343778e-013
6.340000000000015e-003	6.340000e-003	1.343451e-013
6.360000000000015e-003	6.360000e-003	1.343451e-013
6.380000000000015e-003	6.380000e-003	1.343451e-013
6.400000000000015e-003	6.400000e-003	1.343451e-013
6.420000000000015e-003	6.420000e-003	1.343288e-013
6.440000000000015e-003	6.440000e-003	1.343288e-013
6.460000000000015e-003	6.460000e-003	1.343125e-013
6.480000000000015e-003	6.480000e-003	1.343125e-013
6.500000000000015e-003	6.500000e-003	1.343125e-013
6.520000000000015e-003	6.520000e-003	1.343125e-013
6.540000000000015e-003	6.540000e-003	1.342798e-013
6.560000000000016e-003	6.560000e-003	1.342798e-013
6.580000000000016e-003	6.580000e-003	1.342717e-013
6.600000000000016e-003	6.600000e-003	1.342717e-013
6.620000000000016e-003	6.620000e-003	1.342553e-013
6.640000000000016e-003	6.640000e-003	1.342635e-013
6.660000000000016e-003	6.660000e-003	1.342472e-013
6.680000000000016e-003	6.680000e-003	1.342472e-013
6.700000000000016e-003	6.700000e-003	1.342309e-013
6.720000000000016e-003	6.720000e-003	1.342390e-013
6.740000000000016e-003	6.740000e-003	1.342227e-013
6.760000000000016e-003	6.760000e-003	1.342227e-013
6.780000000000016e-003	6.780000e-003	1.342145e-013
6.800000000000016e-003	6.800000e-003	1.342145e-013
6.820000000000016e-003	6.820000e-003	1.341982e-013
6.840000000000016e-003	6.840000e-003	1.341819e-013
6.860000000000016e-003	6.860000e-003	1.341819e-013
6.880000000000016e-003	6.880000e-003	1.341819e-013
6.900000000000016e-003	6.900000e-003	1.341819e-013
6.920000000000016e-003	6.920000e-003	1.341656e-013
6.940000000000017e-003	6.940000e-003	1.341819e-013
6.960000000000017e-003	6.960000e-003	1.341492e-013
6.980000000000017e-003	6.980000e-003	1.341492e-013
7.000000000000017e-003	7.000000e-003	1.341411e-013
7.020000000000017e-003	7.020000e-003	1.341492e-013
7.040000000000017e-003	7.040000e-003	1.341329e-013
7.060000000000017e-003	7.060000e-003	1.341329e-013
7.080000000000017e-003	7.080000e-003	1.341003e-013
7.100000000000017e-003	7.100000e-003	1.341166e-013
7.120000000000017e-003	7.120000e-003	1.341084e-013
7.140000000000017e-003	7.140000e-003	1.341084e-013
7.160000000000017e-003	7.160000e-003	1.340839e-013
7.180000000000017e-003	7.180000e-003	1.340839e-013
7.200000000000017e-003	7.200000e-003	1.341003e-013
7.220000000000017e-003	7.220000e-003	1.340676e-013
7.240000000000017e-003	7.240000e-003	1.340676e-013
7.260000000000017e-003	7.260000e-003	1.340594e-013
7.280000000000017e-003	7.280000e-003	1.340594e-013
7.300000000000017e-003	7.300000e-003	1.340513e-013
7.320000000000018e-003	7.320000e-003	1.340513e-013
7.340000000000018e-003	7.340000e-003	1.340349e-013
7.360000000000018e-003	7.360000e-003	1.340186e-013
7.380000000000018e-003	7.380000e-003	1.340268e-013
7.400000000000018e-003	7.400000e-003	1.340186e-013
7.420000000000018e-003	7.420000e-003	1.340186e-013
7.440000000000018e-003	7.440000e-003	1.340023e-013
7.460000000000018e-003	7.460000e-003	1.340023e-013
7.480000000000018e-003	7.480000e-003	1.340023e-013
7.500000000000018e-003	7.500000e-003	1.340023e-013
7.520000000000018e-003	7.520000e-003	1.339696e-013
7.540000000000018e-003	7.540000e-003	1.339696e-013
7.560000000000018e-003	7.560000e-003	1.339615e-013
7.580000000000018e-003	7.580000e-003	1.339696e-013
7.600000000000018e-003	7.600000e-003	1.339696e-013
7.620000000000018e-003	7.620000e-003	1.339533e-013
7.640000000000018e-003	7.640000e-003	1.339533e-013
7.660000000000018e-003	7.660000e-003	1.339370e-013
7.680000000000018e-003	7.680000e-003	1.339370e-013
7.700000000000019e-003	7.700000e-003	1.339370e-013
7.720000000000019e-003	7.720000e-003	1.339288e-013
7.740000000000019e-003	7.740000e-003	1.339043e-013
7.760000000000019e-003	7.760000e-003	1.339043e-013
7.780000000000019e-003	7.780000e-003	1.339043e-013
7.800000000000019e-003	7.800000e-003	1.338880e-013
