vcc	V(ce)	Ic(Q1)
0.000000000000000e+000	0.000000e+000	-2.901015e-005
1.000000000000000e-004	1.000000e-004	-2.849808e-005
2.000000000000000e-004	2.000000e-004	-2.798794e-005
3.000000000000000e-004	3.000000e-004	-2.747973e-005
4.000000000000000e-004	4.000000e-004	-2.697344e-005
5.000000000000000e-004	5.000000e-004	-2.646907e-005
6.000000000000001e-004	6.000000e-004	-2.596659e-005
7.000000000000001e-004	7.000000e-004	-2.546602e-005
8.000000000000002e-004	8.000000e-004	-2.496733e-005
9.000000000000002e-004	9.000000e-004	-2.447053e-005
1.000000000000000e-003	1.000000e-003	-2.397561e-005
1.100000000000000e-003	1.100000e-003	-2.348256e-005
1.200000000000000e-003	1.200000e-003	-2.299137e-005
1.300000000000000e-003	1.300000e-003	-2.250203e-005
1.400000000000000e-003	1.400000e-003	-2.201454e-005
1.500000000000001e-003	1.500000e-003	-2.152890e-005
1.600000000000001e-003	1.600000e-003	-2.104509e-005
1.700000000000001e-003	1.700000e-003	-2.056311e-005
1.800000000000001e-003	1.800000e-003	-2.008295e-005
1.900000000000001e-003	1.900000e-003	-1.960460e-005
2.000000000000001e-003	2.000000e-003	-1.912806e-005
2.100000000000000e-003	2.100000e-003	-1.865333e-005
2.200000000000000e-003	2.200000e-003	-1.818038e-005
2.300000000000000e-003	2.300000e-003	-1.770923e-005
2.400000000000000e-003	2.400000e-003	-1.723985e-005
2.500000000000000e-003	2.500000e-003	-1.677225e-005
2.599999999999999e-003	2.600000e-003	-1.630642e-005
2.699999999999999e-003	2.700000e-003	-1.584235e-005
2.799999999999999e-003	2.800000e-003	-1.538003e-005
2.899999999999999e-003	2.900000e-003	-1.491946e-005
2.999999999999999e-003	3.000000e-003	-1.446063e-005
3.099999999999999e-003	3.100000e-003	-1.400354e-005
3.199999999999998e-003	3.200000e-003	-1.354817e-005
3.299999999999998e-003	3.300000e-003	-1.309452e-005
3.399999999999998e-003	3.400000e-003	-1.264260e-005
3.499999999999998e-003	3.500000e-003	-1.219237e-005
3.599999999999998e-003	3.600000e-003	-1.174386e-005
3.699999999999998e-003	3.700000e-003	-1.129703e-005
3.799999999999997e-003	3.800000e-003	-1.085190e-005
3.899999999999997e-003	3.900000e-003	-1.040845e-005
3.999999999999998e-003	4.000000e-003	-9.966681e-006
4.099999999999998e-003	4.100000e-003	-9.526580e-006
4.199999999999998e-003	4.200000e-003	-9.088143e-006
4.299999999999998e-003	4.300000e-003	-8.651365e-006
4.399999999999999e-003	4.400000e-003	-8.216238e-006
4.499999999999999e-003	4.500000e-003	-7.782757e-006
4.599999999999999e-003	4.600000e-003	-7.350916e-006
4.699999999999999e-003	4.700000e-003	-6.920708e-006
4.800000000000000e-003	4.800000e-003	-6.492128e-006
4.900000000000000e-003	4.900000e-003	-6.065169e-006
5.000000000000000e-003	5.000000e-003	-5.639825e-006
5.100000000000000e-003	5.100000e-003	-5.216090e-006
5.200000000000001e-003	5.200000e-003	-4.793959e-006
5.300000000000001e-003	5.300000e-003	-4.373424e-006
5.400000000000001e-003	5.400000e-003	-3.954481e-006
5.500000000000001e-003	5.500000e-003	-3.537123e-006
5.600000000000002e-003	5.600000e-003	-3.121344e-006
5.700000000000002e-003	5.700000e-003	-2.707138e-006
5.800000000000002e-003	5.800000e-003	-2.294499e-006
5.900000000000003e-003	5.900000e-003	-1.883422e-006
6.000000000000003e-003	6.000000e-003	-1.473901e-006
6.100000000000003e-003	6.100000e-003	-1.065929e-006
6.200000000000003e-003	6.200000e-003	-6.595014e-007
6.300000000000004e-003	6.300000e-003	-2.546118e-007
6.400000000000004e-003	6.400000e-003	1.487454e-007
6.500000000000004e-003	6.500000e-003	5.505759e-007
6.600000000000004e-003	6.600000e-003	9.508856e-007
6.700000000000005e-003	6.700000e-003	1.349680e-006
6.800000000000005e-003	6.800000e-003	1.746965e-006
6.900000000000005e-003	6.900000e-003	2.142746e-006
7.000000000000005e-003	7.000000e-003	2.537029e-006
7.100000000000006e-003	7.100000e-003	2.929820e-006
7.200000000000006e-003	7.200000e-003	3.321123e-006
7.300000000000006e-003	7.300000e-003	3.710946e-006
7.400000000000006e-003	7.400000e-003	4.099292e-006
7.500000000000007e-003	7.500000e-003	4.486168e-006
7.600000000000007e-003	7.600000e-003	4.871579e-006
7.700000000000007e-003	7.700000e-003	5.255532e-006
7.800000000000007e-003	7.800000e-003	5.638030e-006
7.900000000000008e-003	7.900000e-003	6.019080e-006
8.000000000000007e-003	8.000000e-003	6.398688e-006
8.100000000000007e-003	8.100000e-003	6.776857e-006
8.200000000000006e-003	8.200000e-003	7.153596e-006
8.300000000000005e-003	8.300000e-003	7.528907e-006
8.400000000000005e-003	8.400000e-003	7.902797e-006
8.500000000000004e-003	8.500000e-003	8.275271e-006
8.600000000000004e-003	8.600000e-003	8.646335e-006
8.700000000000003e-003	8.700000e-003	9.015993e-006
8.800000000000002e-003	8.800000e-003	9.384252e-006
8.900000000000002e-003	8.900000e-003	9.751115e-006
9.000000000000001e-003	9.000000e-003	1.011659e-005
9.100000000000000e-003	9.100000e-003	1.048068e-005
9.200000000000000e-003	9.200000e-003	1.084339e-005
9.299999999999999e-003	9.300000e-003	1.120473e-005
9.399999999999999e-003	9.400000e-003	1.156470e-005
9.499999999999998e-003	9.500000e-003	1.192330e-005
9.599999999999997e-003	9.600000e-003	1.228055e-005
9.699999999999997e-003	9.700000e-003	1.263644e-005
9.799999999999996e-003	9.800000e-003	1.299098e-005
9.899999999999996e-003	9.900000e-003	1.334419e-005
9.999999999999995e-003	1.000000e-002	1.369605e-005
1.009999999999999e-002	1.010000e-002	1.404658e-005
1.019999999999999e-002	1.020000e-002	1.439578e-005
1.029999999999999e-002	1.030000e-002	1.474366e-005
1.039999999999999e-002	1.040000e-002	1.509022e-005
1.049999999999999e-002	1.050000e-002	1.543547e-005
1.059999999999999e-002	1.060000e-002	1.577941e-005
1.069999999999999e-002	1.070000e-002	1.612205e-005
1.079999999999999e-002	1.080000e-002	1.646339e-005
1.089999999999999e-002	1.090000e-002	1.680343e-005
1.099999999999999e-002	1.100000e-002	1.714219e-005
1.109999999999999e-002	1.110000e-002	1.747966e-005
1.119999999999999e-002	1.120000e-002	1.781585e-005
1.129999999999999e-002	1.130000e-002	1.815077e-005
1.139999999999999e-002	1.140000e-002	1.848442e-005
1.149999999999999e-002	1.150000e-002	1.881681e-005
1.159999999999999e-002	1.160000e-002	1.914794e-005
1.169999999999999e-002	1.170000e-002	1.947781e-005
1.179999999999998e-002	1.180000e-002	1.980643e-005
1.189999999999998e-002	1.190000e-002	2.013380e-005
1.199999999999998e-002	1.200000e-002	2.045994e-005
1.209999999999998e-002	1.210000e-002	2.078484e-005
1.219999999999998e-002	1.220000e-002	2.110850e-005
1.229999999999998e-002	1.230000e-002	2.143094e-005
1.239999999999998e-002	1.240000e-002	2.175216e-005
1.249999999999998e-002	1.250000e-002	2.207216e-005
1.259999999999998e-002	1.260000e-002	2.239095e-005
1.269999999999998e-002	1.270000e-002	2.270853e-005
1.279999999999998e-002	1.280000e-002	2.302490e-005
1.289999999999998e-002	1.290000e-002	2.334008e-005
1.299999999999998e-002	1.300000e-002	2.365406e-005
1.309999999999998e-002	1.310000e-002	2.396685e-005
1.319999999999998e-002	1.320000e-002	2.427845e-005
1.329999999999998e-002	1.330000e-002	2.458888e-005
1.339999999999997e-002	1.340000e-002	2.489812e-005
1.349999999999997e-002	1.350000e-002	2.520619e-005
1.359999999999997e-002	1.360000e-002	2.551310e-005
1.369999999999997e-002	1.370000e-002	2.581884e-005
1.379999999999997e-002	1.380000e-002	2.612342e-005
1.389999999999997e-002	1.390000e-002	2.642685e-005
1.399999999999997e-002	1.400000e-002	2.672913e-005
1.409999999999997e-002	1.410000e-002	2.703026e-005
1.419999999999997e-002	1.420000e-002	2.733024e-005
1.429999999999997e-002	1.430000e-002	2.762910e-005
1.439999999999997e-002	1.440000e-002	2.792681e-005
1.449999999999997e-002	1.450000e-002	2.822340e-005
1.459999999999997e-002	1.460000e-002	2.851887e-005
1.469999999999997e-002	1.470000e-002	2.881321e-005
1.479999999999997e-002	1.480000e-002	2.910644e-005
1.489999999999997e-002	1.490000e-002	2.939855e-005
1.499999999999997e-002	1.500000e-002	2.968956e-005
1.509999999999996e-002	1.510000e-002	2.997946e-005
1.519999999999996e-002	1.520000e-002	3.026826e-005
1.529999999999996e-002	1.530000e-002	3.055597e-005
1.539999999999996e-002	1.540000e-002	3.084259e-005
1.549999999999996e-002	1.550000e-002	3.112812e-005
1.559999999999996e-002	1.560000e-002	3.141256e-005
1.569999999999996e-002	1.570000e-002	3.169593e-005
1.579999999999996e-002	1.580000e-002	3.197822e-005
1.589999999999996e-002	1.590000e-002	3.225945e-005
1.599999999999996e-002	1.600000e-002	3.253960e-005
1.609999999999996e-002	1.610000e-002	3.281869e-005
1.619999999999996e-002	1.620000e-002	3.309673e-005
1.629999999999996e-002	1.630000e-002	3.337370e-005
1.639999999999996e-002	1.640000e-002	3.364963e-005
1.649999999999996e-002	1.650000e-002	3.392452e-005
1.659999999999996e-002	1.660000e-002	3.419835e-005
1.669999999999995e-002	1.670000e-002	3.447115e-005
1.679999999999995e-002	1.680000e-002	3.474292e-005
1.689999999999995e-002	1.690000e-002	3.501365e-005
1.699999999999995e-002	1.700000e-002	3.528336e-005
1.709999999999995e-002	1.710000e-002	3.555204e-005
1.719999999999995e-002	1.720000e-002	3.581970e-005
1.729999999999995e-002	1.730000e-002	3.608635e-005
1.739999999999995e-002	1.740000e-002	3.635199e-005
1.749999999999995e-002	1.750000e-002	3.661661e-005
1.759999999999995e-002	1.760000e-002	3.688024e-005
1.769999999999995e-002	1.770000e-002	3.714286e-005
1.779999999999995e-002	1.780000e-002	3.740449e-005
1.789999999999995e-002	1.790000e-002	3.766512e-005
1.799999999999995e-002	1.800000e-002	3.792477e-005
1.809999999999995e-002	1.810000e-002	3.818343e-005
1.819999999999995e-002	1.820000e-002	3.844111e-005
1.829999999999995e-002	1.830000e-002	3.869781e-005
1.839999999999994e-002	1.840000e-002	3.895353e-005
1.849999999999994e-002	1.850000e-002	3.920829e-005
1.859999999999994e-002	1.860000e-002	3.946208e-005
1.869999999999994e-002	1.870000e-002	3.971491e-005
1.879999999999994e-002	1.880000e-002	3.996677e-005
1.889999999999994e-002	1.890000e-002	4.021768e-005
1.899999999999994e-002	1.900000e-002	4.046764e-005
1.909999999999994e-002	1.910000e-002	4.071665e-005
1.919999999999994e-002	1.920000e-002	4.096471e-005
1.929999999999994e-002	1.930000e-002	4.121184e-005
1.939999999999994e-002	1.940000e-002	4.145802e-005
1.949999999999994e-002	1.950000e-002	4.170327e-005
1.959999999999994e-002	1.960000e-002	4.194759e-005
1.969999999999994e-002	1.970000e-002	4.219098e-005
1.979999999999994e-002	1.980000e-002	4.243345e-005
1.989999999999994e-002	1.990000e-002	4.267500e-005
1.999999999999993e-002	2.000000e-002	4.291563e-005
2.009999999999993e-002	2.010000e-002	4.315535e-005
2.019999999999993e-002	2.020000e-002	4.339415e-005
2.029999999999993e-002	2.030000e-002	4.363205e-005
2.039999999999993e-002	2.040000e-002	4.386905e-005
2.049999999999993e-002	2.050000e-002	4.410515e-005
2.059999999999993e-002	2.060000e-002	4.434035e-005
2.069999999999993e-002	2.070000e-002	4.457466e-005
2.079999999999993e-002	2.080000e-002	4.480808e-005
2.089999999999993e-002	2.090000e-002	4.504061e-005
2.099999999999993e-002	2.100000e-002	4.527226e-005
2.109999999999993e-002	2.110000e-002	4.550303e-005
2.119999999999993e-002	2.120000e-002	4.573293e-005
2.129999999999993e-002	2.130000e-002	4.596195e-005
2.139999999999993e-002	2.140000e-002	4.619010e-005
2.149999999999993e-002	2.150000e-002	4.641739e-005
2.159999999999993e-002	2.160000e-002	4.664381e-005
2.169999999999992e-002	2.170000e-002	4.686938e-005
2.179999999999992e-002	2.180000e-002	4.709408e-005
2.189999999999992e-002	2.190000e-002	4.731794e-005
2.199999999999992e-002	2.200000e-002	4.754094e-005
2.209999999999992e-002	2.210000e-002	4.776310e-005
2.219999999999992e-002	2.220000e-002	4.798441e-005
2.229999999999992e-002	2.230000e-002	4.820489e-005
2.239999999999992e-002	2.240000e-002	4.842452e-005
2.249999999999992e-002	2.250000e-002	4.864332e-005
2.259999999999992e-002	2.260000e-002	4.886129e-005
2.269999999999992e-002	2.270000e-002	4.907844e-005
2.279999999999992e-002	2.280000e-002	4.929476e-005
2.289999999999992e-002	2.290000e-002	4.951025e-005
2.299999999999992e-002	2.300000e-002	4.972493e-005
2.309999999999992e-002	2.310000e-002	4.993880e-005
2.319999999999992e-002	2.320000e-002	5.015185e-005
2.329999999999992e-002	2.330000e-002	5.036409e-005
2.339999999999991e-002	2.340000e-002	5.057553e-005
2.349999999999991e-002	2.350000e-002	5.078616e-005
2.359999999999991e-002	2.360000e-002	5.099600e-005
2.369999999999991e-002	2.370000e-002	5.120504e-005
2.379999999999991e-002	2.380000e-002	5.141328e-005
2.389999999999991e-002	2.390000e-002	5.162073e-005
2.399999999999991e-002	2.400000e-002	5.182740e-005
2.409999999999991e-002	2.410000e-002	5.203327e-005
2.419999999999991e-002	2.420000e-002	5.223837e-005
2.429999999999991e-002	2.430000e-002	5.244269e-005
2.439999999999991e-002	2.440000e-002	5.264623e-005
2.449999999999991e-002	2.450000e-002	5.284900e-005
2.459999999999991e-002	2.460000e-002	5.305100e-005
2.469999999999991e-002	2.470000e-002	5.325223e-005
2.479999999999991e-002	2.480000e-002	5.345270e-005
2.489999999999991e-002	2.490000e-002	5.365241e-005
2.499999999999990e-002	2.500000e-002	5.385136e-005
2.509999999999990e-002	2.510000e-002	5.404955e-005
2.519999999999990e-002	2.520000e-002	5.424699e-005
2.529999999999990e-002	2.530000e-002	5.444368e-005
2.539999999999990e-002	2.540000e-002	5.463962e-005
2.549999999999990e-002	2.550000e-002	5.483482e-005
2.559999999999990e-002	2.560000e-002	5.502928e-005
2.569999999999990e-002	2.570000e-002	5.522299e-005
2.579999999999990e-002	2.580000e-002	5.541597e-005
2.589999999999990e-002	2.590000e-002	5.560822e-005
2.599999999999990e-002	2.600000e-002	5.579974e-005
2.609999999999990e-002	2.610000e-002	5.599053e-005
2.619999999999990e-002	2.620000e-002	5.618060e-005
2.629999999999990e-002	2.630000e-002	5.636994e-005
2.639999999999990e-002	2.640000e-002	5.655857e-005
2.649999999999990e-002	2.650000e-002	5.674648e-005
2.659999999999990e-002	2.660000e-002	5.693367e-005
2.669999999999989e-002	2.670000e-002	5.712016e-005
2.679999999999989e-002	2.680000e-002	5.730593e-005
2.689999999999989e-002	2.690000e-002	5.749100e-005
2.699999999999989e-002	2.700000e-002	5.767537e-005
2.709999999999989e-002	2.710000e-002	5.785903e-005
2.719999999999989e-002	2.720000e-002	5.804200e-005
2.729999999999989e-002	2.730000e-002	5.822428e-005
2.739999999999989e-002	2.740000e-002	5.840586e-005
2.749999999999989e-002	2.750000e-002	5.858675e-005
2.759999999999989e-002	2.760000e-002	5.876695e-005
2.769999999999989e-002	2.770000e-002	5.894647e-005
2.779999999999989e-002	2.780000e-002	5.912531e-005
2.789999999999989e-002	2.790000e-002	5.930347e-005
2.799999999999989e-002	2.800000e-002	5.948095e-005
2.809999999999989e-002	2.810000e-002	5.965775e-005
2.819999999999989e-002	2.820000e-002	5.983389e-005
2.829999999999988e-002	2.830000e-002	6.000935e-005
2.839999999999988e-002	2.840000e-002	6.018415e-005
2.849999999999988e-002	2.850000e-002	6.035828e-005
2.859999999999988e-002	2.860000e-002	6.053176e-005
2.869999999999988e-002	2.870000e-002	6.070457e-005
2.879999999999988e-002	2.880000e-002	6.087673e-005
2.889999999999988e-002	2.890000e-002	6.104823e-005
2.899999999999988e-002	2.900000e-002	6.121909e-005
2.909999999999988e-002	2.910000e-002	6.138929e-005
2.919999999999988e-002	2.920000e-002	6.155884e-005
2.929999999999988e-002	2.930000e-002	6.172775e-005
2.939999999999988e-002	2.940000e-002	6.189603e-005
2.949999999999988e-002	2.950000e-002	6.206366e-005
2.959999999999988e-002	2.960000e-002	6.223065e-005
2.969999999999988e-002	2.970000e-002	6.239700e-005
2.979999999999988e-002	2.980000e-002	6.256274e-005
2.989999999999988e-002	2.990000e-002	6.272784e-005
2.999999999999987e-002	3.000000e-002	6.289230e-005
3.009999999999987e-002	3.010000e-002	6.305615e-005
3.019999999999987e-002	3.020000e-002	6.321937e-005
3.029999999999987e-002	3.030000e-002	6.338197e-005
3.039999999999987e-002	3.040000e-002	6.354396e-005
3.049999999999987e-002	3.050000e-002	6.370532e-005
3.059999999999987e-002	3.060000e-002	6.386608e-005
3.069999999999987e-002	3.070000e-002	6.402622e-005
3.079999999999987e-002	3.080000e-002	6.418576e-005
3.089999999999987e-002	3.090000e-002	6.434469e-005
3.099999999999987e-002	3.100000e-002	6.450302e-005
3.109999999999987e-002	3.110000e-002	6.466074e-005
3.119999999999987e-002	3.120000e-002	6.481786e-005
3.129999999999987e-002	3.130000e-002	6.497439e-005
3.139999999999987e-002	3.140000e-002	6.513032e-005
3.149999999999988e-002	3.150000e-002	6.528566e-005
3.159999999999988e-002	3.160000e-002	6.544041e-005
3.169999999999988e-002	3.170000e-002	6.559458e-005
3.179999999999988e-002	3.180000e-002	6.574815e-005
3.189999999999989e-002	3.190000e-002	6.590114e-005
3.199999999999989e-002	3.200000e-002	6.605356e-005
3.209999999999989e-002	3.210000e-002	6.620539e-005
3.219999999999990e-002	3.220000e-002	6.635664e-005
3.229999999999990e-002	3.230000e-002	6.650732e-005
3.239999999999990e-002	3.240000e-002	6.665743e-005
3.249999999999990e-002	3.250000e-002	6.680697e-005
3.259999999999991e-002	3.260000e-002	6.695594e-005
3.269999999999991e-002	3.270000e-002	6.710434e-005
3.279999999999991e-002	3.280000e-002	6.725218e-005
3.289999999999992e-002	3.290000e-002	6.739945e-005
3.299999999999992e-002	3.300000e-002	6.754617e-005
3.309999999999992e-002	3.310000e-002	6.769233e-005
3.319999999999992e-002	3.320000e-002	6.783794e-005
3.329999999999993e-002	3.330000e-002	6.798298e-005
3.339999999999993e-002	3.340000e-002	6.812748e-005
3.349999999999993e-002	3.350000e-002	6.827143e-005
3.359999999999994e-002	3.360000e-002	6.841484e-005
3.369999999999994e-002	3.370000e-002	6.855770e-005
3.379999999999994e-002	3.380000e-002	6.870001e-005
3.389999999999994e-002	3.390000e-002	6.884179e-005
3.399999999999995e-002	3.400000e-002	6.898302e-005
3.409999999999995e-002	3.410000e-002	6.912372e-005
3.419999999999995e-002	3.420000e-002	6.926389e-005
3.429999999999996e-002	3.430000e-002	6.940351e-005
3.439999999999996e-002	3.440000e-002	6.954261e-005
3.449999999999996e-002	3.450000e-002	6.968118e-005
3.459999999999996e-002	3.460000e-002	6.981923e-005
3.469999999999997e-002	3.470000e-002	6.995675e-005
3.479999999999997e-002	3.480000e-002	7.009375e-005
3.489999999999997e-002	3.490000e-002	7.023023e-005
3.499999999999998e-002	3.500000e-002	7.036619e-005
3.509999999999998e-002	3.510000e-002	7.050163e-005
3.519999999999998e-002	3.520000e-002	7.063655e-005
3.529999999999998e-002	3.530000e-002	7.077097e-005
3.539999999999999e-002	3.540000e-002	7.090488e-005
3.549999999999999e-002	3.550000e-002	7.103827e-005
3.559999999999999e-002	3.560000e-002	7.117115e-005
3.570000000000000e-002	3.570000e-002	7.130354e-005
3.580000000000000e-002	3.580000e-002	7.143542e-005
3.590000000000000e-002	3.590000e-002	7.156679e-005
3.600000000000000e-002	3.600000e-002	7.169767e-005
3.610000000000001e-002	3.610000e-002	7.182806e-005
3.620000000000001e-002	3.620000e-002	7.195794e-005
3.630000000000001e-002	3.630000e-002	7.208734e-005
3.640000000000002e-002	3.640000e-002	7.221624e-005
3.650000000000002e-002	3.650000e-002	7.234464e-005
3.660000000000002e-002	3.660000e-002	7.247257e-005
3.670000000000002e-002	3.670000e-002	7.260000e-005
3.680000000000003e-002	3.680000e-002	7.272695e-005
3.690000000000003e-002	3.690000e-002	7.285342e-005
3.700000000000003e-002	3.700000e-002	7.297941e-005
3.710000000000004e-002	3.710000e-002	7.310492e-005
3.720000000000004e-002	3.720000e-002	7.322995e-005
3.730000000000004e-002	3.730000e-002	7.335451e-005
3.740000000000004e-002	3.740000e-002	7.347859e-005
3.750000000000005e-002	3.750000e-002	7.360220e-005
3.760000000000005e-002	3.760000e-002	7.372535e-005
3.770000000000005e-002	3.770000e-002	7.384802e-005
3.780000000000006e-002	3.780000e-002	7.397024e-005
3.790000000000006e-002	3.790000e-002	7.409198e-005
3.800000000000006e-002	3.800000e-002	7.421326e-005
3.810000000000006e-002	3.810000e-002	7.433408e-005
3.820000000000007e-002	3.820000e-002	7.445444e-005
3.830000000000007e-002	3.830000e-002	7.457435e-005
3.840000000000007e-002	3.840000e-002	7.469379e-005
3.850000000000008e-002	3.850000e-002	7.481279e-005
3.860000000000008e-002	3.860000e-002	7.493133e-005
3.870000000000008e-002	3.870000e-002	7.504941e-005
3.880000000000008e-002	3.880000e-002	7.516706e-005
3.890000000000009e-002	3.890000e-002	7.528425e-005
