vin	V(be)	Ic(Q1)
0.000000000000000e+000	1.114460e-009	5.091875e-012
5.000000000000000e-003	5.000001e-003	5.092920e-012
1.000000000000000e-002	1.000000e-002	5.093964e-012
1.500000000000000e-002	1.500000e-002	5.097099e-012
2.000000000000000e-002	2.000000e-002	5.101279e-012
2.500000000000000e-002	2.500000e-002	5.108593e-012
3.000000000000000e-002	3.000000e-002	5.116952e-012
3.500000000000000e-002	3.500000e-002	5.129491e-012
4.000000000000000e-002	4.000000e-002	5.145166e-012
4.500000000000000e-002	4.500000e-002	5.165019e-012
5.000000000000000e-002	5.000000e-002	5.191142e-012
5.499999999999999e-002	5.500000e-002	5.223534e-012
5.999999999999999e-002	6.000000e-002	5.263241e-012
6.499999999999999e-002	6.500000e-002	5.311307e-012
6.999999999999999e-002	7.000000e-002	5.372957e-012
7.500000000000000e-002	7.500000e-002	5.447146e-012
8.000000000000000e-002	8.000000e-002	5.538054e-012
8.500000000000001e-002	8.500000e-002	5.649859e-012
9.000000000000001e-002	9.000000e-002	5.785699e-012
9.500000000000002e-002	9.500000e-002	5.952885e-012
1.000000000000000e-001	1.000000e-001	6.153509e-012
1.050000000000000e-001	1.050000e-001	6.400109e-012
1.100000000000000e-001	1.100000e-001	6.698955e-012
1.150000000000000e-001	1.150000e-001	7.062586e-012
1.200000000000000e-001	1.200000e-001	7.502495e-012
1.250000000000000e-001	1.250000e-001	8.037493e-012
1.300000000000000e-001	1.300000e-001	8.686385e-012
1.350000000000000e-001	1.350000e-001	9.473207e-012
1.400000000000000e-001	1.400000e-001	1.042617e-011
1.450000000000001e-001	1.450000e-001	1.158394e-011
1.500000000000001e-001	1.500000e-001	1.298412e-011
1.550000000000001e-001	1.550000e-001	1.468316e-011
1.600000000000001e-001	1.600000e-001	1.674060e-011
1.650000000000001e-001	1.650000e-001	1.923377e-011
1.700000000000001e-001	1.700000e-001	2.225462e-011
1.750000000000001e-001	1.750000e-001	2.591391e-011
1.800000000000001e-001	1.800000e-001	3.034644e-011
1.850000000000001e-001	1.850000e-001	3.571627e-011
1.900000000000001e-001	1.900000e-001	4.222087e-011
1.950000000000001e-001	1.950000e-001	5.009849e-011
2.000000000000001e-001	2.000000e-001	5.964066e-011
2.050000000000001e-001	2.050000e-001	7.119847e-011
2.100000000000001e-001	2.100000e-001	8.519616e-011
2.150000000000001e-001	2.150000e-001	1.021499e-010
2.200000000000001e-001	2.200000e-001	1.226846e-010
2.250000000000001e-001	2.250000e-001	1.475546e-010
2.300000000000001e-001	2.300000e-001	1.776754e-010
2.350000000000001e-001	2.350000e-001	2.141544e-010
2.400000000000001e-001	2.400000e-001	2.583366e-010
2.450000000000001e-001	2.450000e-001	3.118457e-010
2.500000000000001e-001	2.500000e-001	3.766503e-010
2.550000000000001e-001	2.550000e-001	4.551371e-010
2.600000000000001e-001	2.600000e-001	5.501921e-010
2.650000000000001e-001	2.650000e-001	6.653136e-010
2.700000000000001e-001	2.700000e-001	8.047367e-010
2.750000000000001e-001	2.750000e-001	9.735930e-010
2.800000000000001e-001	2.800000e-001	1.178092e-009
2.850000000000001e-001	2.850000e-001	1.425763e-009
2.900000000000002e-001	2.900000e-001	1.725714e-009
2.950000000000002e-001	2.950000e-001	2.088983e-009
3.000000000000002e-001	3.000000e-001	2.528936e-009
3.050000000000002e-001	3.050000e-001	3.061760e-009
3.100000000000002e-001	3.100000e-001	3.707057e-009
3.150000000000002e-001	3.150000e-001	4.488572e-009
3.200000000000002e-001	3.200000e-001	5.435056e-009
3.250000000000002e-001	3.250000e-001	6.581335e-009
3.300000000000002e-001	3.300000e-001	7.969581e-009
3.350000000000002e-001	3.350000e-001	9.650871e-009
3.400000000000002e-001	3.400000e-001	1.168706e-008
3.450000000000002e-001	3.450000e-001	1.415307e-008
3.500000000000002e-001	3.500000e-001	1.713962e-008
3.550000000000002e-001	3.550000e-001	2.075659e-008
3.600000000000002e-001	3.600000e-001	2.513706e-008
3.650000000000002e-001	3.650000e-001	3.044217e-008
3.700000000000002e-001	3.700000e-001	3.686711e-008
3.750000000000002e-001	3.750000e-001	4.464825e-008
3.800000000000002e-001	3.800000e-001	5.407183e-008
3.850000000000002e-001	3.849999e-001	6.548453e-008
3.900000000000002e-001	3.899999e-001	7.930619e-008
3.950000000000002e-001	3.949999e-001	9.604525e-008
4.000000000000002e-001	3.999999e-001	1.163174e-007
4.050000000000003e-001	4.049999e-001	1.408684e-007
4.100000000000003e-001	4.099998e-001	1.706012e-007
4.150000000000003e-001	4.149998e-001	2.066093e-007
4.200000000000003e-001	4.199998e-001	2.502169e-007
4.250000000000003e-001	4.249997e-001	3.030275e-007
4.300000000000003e-001	4.299997e-001	3.669829e-007
4.350000000000003e-001	4.349996e-001	4.444341e-007
4.400000000000003e-001	4.399996e-001	5.382281e-007
4.450000000000003e-001	4.449995e-001	6.518113e-007
4.500000000000003e-001	4.499994e-001	7.893569e-007
4.550000000000003e-001	4.549992e-001	9.559166e-007
4.600000000000003e-001	4.599991e-001	1.157605e-006
4.650000000000003e-001	4.649989e-001	1.401825e-006
4.700000000000003e-001	4.699987e-001	1.697532e-006
4.750000000000003e-001	4.749984e-001	2.055567e-006
4.800000000000003e-001	4.799981e-001	2.489041e-006
4.850000000000003e-001	4.849977e-001	3.013816e-006
4.900000000000003e-001	4.899972e-001	3.649071e-006
4.950000000000003e-001	4.949967e-001	4.417989e-006
5.000000000000003e-001	4.999960e-001	5.348584e-006
5.050000000000003e-001	5.049952e-001	6.474691e-006
5.100000000000003e-001	5.099941e-001	7.837149e-006
5.150000000000004e-001	5.149929e-001	9.485222e-006
5.200000000000004e-001	5.199915e-001	1.147828e-005
5.250000000000004e-001	5.249897e-001	1.388779e-005
5.300000000000004e-001	5.299875e-001	1.679970e-005
5.350000000000004e-001	5.349849e-001	2.031720e-005
5.400000000000004e-001	5.399818e-001	2.456393e-005
5.450000000000004e-001	5.449780e-001	2.968773e-005
5.500000000000004e-001	5.499734e-001	3.586489e-005
5.550000000000004e-001	5.549678e-001	4.330491e-005
5.600000000000004e-001	5.599611e-001	5.225576e-005
5.650000000000004e-001	5.649529e-001	6.300951e-005
5.700000000000004e-001	5.699431e-001	7.590806e-005
5.750000000000004e-001	5.749312e-001	9.134876e-005
5.800000000000004e-001	5.799169e-001	1.097892e-004
5.850000000000004e-001	5.848995e-001	1.317503e-004
5.900000000000004e-001	5.898786e-001	1.578172e-004
5.950000000000004e-001	5.948533e-001	1.886357e-004
6.000000000000004e-001	5.995123e-001	2.143557e-004
6.050000000000004e-001	6.033925e-001	2.159922e-004
6.100000000000004e-001	6.071423e-001	2.165731e-004
6.150000000000004e-001	6.107653e-001	2.169055e-004
6.200000000000004e-001	6.142579e-001	2.171263e-004
6.250000000000004e-001	6.176174e-001	2.172845e-004
6.300000000000005e-001	6.208428e-001	2.174033e-004
6.350000000000005e-001	6.239346e-001	2.174953e-004
6.400000000000005e-001	6.268948e-001	2.175683e-004
6.450000000000005e-001	6.297261e-001	2.176271e-004
6.500000000000005e-001	6.324323e-001	2.176753e-004
6.550000000000005e-001	6.350181e-001	2.177153e-004
6.600000000000005e-001	6.374884e-001	2.177488e-004
6.650000000000005e-001	6.398484e-001	2.177770e-004
6.700000000000005e-001	6.421037e-001	2.178011e-004
6.750000000000005e-001	6.442597e-001	2.178218e-004
6.800000000000005e-001	6.463218e-001	2.178396e-004
6.850000000000005e-001	6.482955e-001	2.178551e-004
6.900000000000005e-001	6.501857e-001	2.178686e-004
6.950000000000005e-001	6.519974e-001	2.178804e-004
7.000000000000005e-001	6.537355e-001	2.178908e-004
7.050000000000005e-001	6.554041e-001	2.179001e-004
7.100000000000005e-001	6.570075e-001	2.179083e-004
7.150000000000005e-001	6.585497e-001	2.179155e-004
7.200000000000005e-001	6.600342e-001	2.179220e-004
7.250000000000005e-001	6.614645e-001	2.179279e-004
7.300000000000005e-001	6.628438e-001	2.179331e-004
7.350000000000005e-001	6.641750e-001	2.179378e-004
7.400000000000006e-001	6.654609e-001	2.179421e-004
7.450000000000006e-001	6.667041e-001	2.179459e-004
7.500000000000006e-001	6.679069e-001	2.179494e-004
7.550000000000006e-001	6.690717e-001	2.179525e-004
7.600000000000006e-001	6.702005e-001	2.179553e-004
7.650000000000006e-001	6.712951e-001	2.179579e-004
7.700000000000006e-001	6.723574e-001	2.179603e-004
7.750000000000006e-001	6.733892e-001	2.179624e-004
7.800000000000006e-001	6.743919e-001	2.179644e-004
7.850000000000006e-001	6.753669e-001	2.179661e-004
7.900000000000006e-001	6.763158e-001	2.179677e-004
7.950000000000006e-001	6.772397e-001	2.179692e-004
8.000000000000006e-001	6.781398e-001	2.179705e-004
8.050000000000006e-001	6.790173e-001	2.179717e-004
8.100000000000006e-001	6.798732e-001	2.179728e-004
8.150000000000006e-001	6.807084e-001	2.179738e-004
8.200000000000006e-001	6.815239e-001	2.179747e-004
8.250000000000006e-001	6.823206e-001	2.179755e-004
8.300000000000006e-001	6.830993e-001	2.179762e-004
8.350000000000006e-001	6.838607e-001	2.179769e-004
8.400000000000006e-001	6.846056e-001	2.179774e-004
8.450000000000006e-001	6.853346e-001	2.179780e-004
8.500000000000006e-001	6.860484e-001	2.179784e-004
8.550000000000007e-001	6.867476e-001	2.179788e-004
8.600000000000007e-001	6.874327e-001	2.179791e-004
8.650000000000007e-001	6.881043e-001	2.179794e-004
8.700000000000007e-001	6.887630e-001	2.179797e-004
8.750000000000007e-001	6.894091e-001	2.179799e-004
8.800000000000007e-001	6.900432e-001	2.179801e-004
8.850000000000007e-001	6.906657e-001	2.179802e-004
8.900000000000007e-001	6.912770e-001	2.179803e-004
8.950000000000007e-001	6.918775e-001	2.179803e-004
9.000000000000007e-001	6.924676e-001	2.179803e-004
9.050000000000007e-001	6.930476e-001	2.179803e-004
9.100000000000007e-001	6.936179e-001	2.179803e-004
9.150000000000007e-001	6.941788e-001	2.179802e-004
9.200000000000007e-001	6.947306e-001	2.179802e-004
9.250000000000007e-001	6.952735e-001	2.179801e-004
9.300000000000007e-001	6.958079e-001	2.179799e-004
9.350000000000007e-001	6.963341e-001	2.179798e-004
9.400000000000007e-001	6.968523e-001	2.179796e-004
9.450000000000007e-001	6.973627e-001	2.179794e-004
9.500000000000007e-001	6.978656e-001	2.179792e-004
9.550000000000007e-001	6.983612e-001	2.179790e-004
9.600000000000007e-001	6.988497e-001	2.179787e-004
9.650000000000008e-001	6.993313e-001	2.179785e-004
9.700000000000008e-001	6.998063e-001	2.179782e-004
9.750000000000008e-001	7.002747e-001	2.179779e-004
9.800000000000008e-001	7.007368e-001	2.179776e-004
9.850000000000008e-001	7.011928e-001	2.179773e-004
9.900000000000008e-001	7.016428e-001	2.179770e-004
9.950000000000008e-001	7.020870e-001	2.179766e-004
1.000000000000001e+000	7.025255e-001	2.179763e-004
1.005000000000001e+000	7.029585e-001	2.179759e-004
1.010000000000001e+000	7.033861e-001	2.179756e-004
1.015000000000000e+000	7.038085e-001	2.179752e-004
1.020000000000000e+000	7.042259e-001	2.179748e-004
1.025000000000000e+000	7.046382e-001	2.179744e-004
1.030000000000000e+000	7.050457e-001	2.179740e-004
1.035000000000000e+000	7.054485e-001	2.179736e-004
1.040000000000000e+000	7.058466e-001	2.179731e-004
1.045000000000000e+000	7.062403e-001	2.179727e-004
1.050000000000000e+000	7.066295e-001	2.179723e-004
1.055000000000000e+000	7.070145e-001	2.179718e-004
1.059999999999999e+000	7.073953e-001	2.179714e-004
1.064999999999999e+000	7.077719e-001	2.179709e-004
1.069999999999999e+000	7.081445e-001	2.179705e-004
1.074999999999999e+000	7.085133e-001	2.179700e-004
1.079999999999999e+000	7.088782e-001	2.179695e-004
1.084999999999999e+000	7.092394e-001	2.179690e-004
1.089999999999999e+000	7.095969e-001	2.179686e-004
1.094999999999999e+000	7.099507e-001	2.179681e-004
1.099999999999999e+000	7.103012e-001	2.179676e-004
1.104999999999998e+000	7.106481e-001	2.179671e-004
1.109999999999998e+000	7.109917e-001	2.179666e-004
1.114999999999998e+000	7.113321e-001	2.179661e-004
1.119999999999998e+000	7.116691e-001	2.179655e-004
1.124999999999998e+000	7.120031e-001	2.179650e-004
1.129999999999998e+000	7.123339e-001	2.179645e-004
1.134999999999998e+000	7.126617e-001	2.179640e-004
1.139999999999998e+000	7.129866e-001	2.179634e-004
1.144999999999998e+000	7.133085e-001	2.179629e-004
1.149999999999998e+000	7.136275e-001	2.179624e-004
1.154999999999997e+000	7.139438e-001	2.179618e-004
1.159999999999997e+000	7.142573e-001	2.179613e-004
1.164999999999997e+000	7.145681e-001	2.179608e-004
1.169999999999997e+000	7.148762e-001	2.179602e-004
1.174999999999997e+000	7.151818e-001	2.179597e-004
1.179999999999997e+000	7.154848e-001	2.179591e-004
1.184999999999997e+000	7.157853e-001	2.179586e-004
1.189999999999997e+000	7.160833e-001	2.179580e-004
1.194999999999997e+000	7.163790e-001	2.179574e-004
1.199999999999996e+000	7.166722e-001	2.179569e-004
1.204999999999996e+000	7.169632e-001	2.179563e-004
1.209999999999996e+000	7.172518e-001	2.179557e-004
1.214999999999996e+000	7.175382e-001	2.179552e-004
1.219999999999996e+000	7.178224e-001	2.179546e-004
1.224999999999996e+000	7.181044e-001	2.179540e-004
1.229999999999996e+000	7.183842e-001	2.179534e-004
1.234999999999996e+000	7.186620e-001	2.179529e-004
1.239999999999996e+000	7.189377e-001	2.179523e-004
1.244999999999995e+000	7.192113e-001	2.179517e-004
1.249999999999995e+000	7.194830e-001	2.179511e-004
1.254999999999995e+000	7.197527e-001	2.179505e-004
1.259999999999995e+000	7.200205e-001	2.179499e-004
1.264999999999995e+000	7.202863e-001	2.179494e-004
1.269999999999995e+000	7.205503e-001	2.179488e-004
1.274999999999995e+000	7.208124e-001	2.179482e-004
1.279999999999995e+000	7.210728e-001	2.179476e-004
1.284999999999995e+000	7.213314e-001	2.179470e-004
1.289999999999995e+000	7.215881e-001	2.179464e-004
1.294999999999994e+000	7.218432e-001	2.179458e-004
1.299999999999994e+000	7.220965e-001	2.179452e-004
1.304999999999994e+000	7.223482e-001	2.179446e-004
1.309999999999994e+000	7.225982e-001	2.179440e-004
1.314999999999994e+000	7.228466e-001	2.179434e-004
1.319999999999994e+000	7.230934e-001	2.179428e-004
1.324999999999994e+000	7.233385e-001	2.179422e-004
1.329999999999994e+000	7.235822e-001	2.179416e-004
1.334999999999994e+000	7.238243e-001	2.179410e-004
1.339999999999993e+000	7.240649e-001	2.179404e-004
1.344999999999993e+000	7.243040e-001	2.179398e-004
1.349999999999993e+000	7.245416e-001	2.179392e-004
1.354999999999993e+000	7.247778e-001	2.179386e-004
1.359999999999993e+000	7.250125e-001	2.179380e-004
1.364999999999993e+000	7.252458e-001	2.179373e-004
1.369999999999993e+000	7.254778e-001	2.179367e-004
1.374999999999993e+000	7.257083e-001	2.179361e-004
1.379999999999993e+000	7.259375e-001	2.179355e-004
1.384999999999993e+000	7.261654e-001	2.179349e-004
1.389999999999992e+000	7.263920e-001	2.179343e-004
1.394999999999992e+000	7.266172e-001	2.179337e-004
1.399999999999992e+000	7.268412e-001	2.179330e-004
1.404999999999992e+000	7.270639e-001	2.179324e-004
1.409999999999992e+000	7.272854e-001	2.179318e-004
1.414999999999992e+000	7.275056e-001	2.179312e-004
1.419999999999992e+000	7.277246e-001	2.179306e-004
1.424999999999992e+000	7.279424e-001	2.179299e-004
1.429999999999992e+000	7.281590e-001	2.179293e-004
1.434999999999991e+000	7.283745e-001	2.179287e-004
1.439999999999991e+000	7.285888e-001	2.179281e-004
1.444999999999991e+000	7.288019e-001	2.179275e-004
1.449999999999991e+000	7.290139e-001	2.179268e-004
1.454999999999991e+000	7.292249e-001	2.179262e-004
1.459999999999991e+000	7.294347e-001	2.179256e-004
1.464999999999991e+000	7.296434e-001	2.179250e-004
1.469999999999991e+000	7.298510e-001	2.179244e-004
1.474999999999991e+000	7.300576e-001	2.179237e-004
1.479999999999990e+000	7.302632e-001	2.179231e-004
1.484999999999990e+000	7.304677e-001	2.179225e-004
1.489999999999990e+000	7.306712e-001	2.179219e-004
1.494999999999990e+000	7.308736e-001	2.179212e-004
1.499999999999990e+000	7.310751e-001	2.179206e-004
1.504999999999990e+000	7.312756e-001	2.179200e-004
1.509999999999990e+000	7.314751e-001	2.179194e-004
1.514999999999990e+000	7.316737e-001	2.179187e-004
1.519999999999990e+000	7.318712e-001	2.179181e-004
1.524999999999990e+000	7.320679e-001	2.179175e-004
1.529999999999989e+000	7.322636e-001	2.179169e-004
1.534999999999989e+000	7.324584e-001	2.179162e-004
1.539999999999989e+000	7.326523e-001	2.179156e-004
1.544999999999989e+000	7.328453e-001	2.179150e-004
1.549999999999989e+000	7.330374e-001	2.179143e-004
1.554999999999989e+000	7.332286e-001	2.179137e-004
1.559999999999989e+000	7.334190e-001	2.179131e-004
1.564999999999989e+000	7.336085e-001	2.179125e-004
1.569999999999989e+000	7.337971e-001	2.179118e-004
1.574999999999988e+000	7.339849e-001	2.179112e-004
1.579999999999988e+000	7.341719e-001	2.179106e-004
1.584999999999988e+000	7.343580e-001	2.179099e-004
1.589999999999988e+000	7.345433e-001	2.179093e-004
1.594999999999988e+000	7.347278e-001	2.179087e-004
1.599999999999988e+000	7.349115e-001	2.179080e-004
1.604999999999988e+000	7.350944e-001	2.179074e-004
1.609999999999988e+000	7.352766e-001	2.179068e-004
1.614999999999988e+000	7.354580e-001	2.179062e-004
1.619999999999988e+000	7.356386e-001	2.179055e-004
1.624999999999987e+000	7.358184e-001	2.179049e-004
1.629999999999987e+000	7.359975e-001	2.179042e-004
1.634999999999987e+000	7.361758e-001	2.179036e-004
1.639999999999987e+000	7.363535e-001	2.179030e-004
1.644999999999987e+000	7.365303e-001	2.179024e-004
1.649999999999987e+000	7.367065e-001	2.179017e-004
1.654999999999987e+000	7.368819e-001	2.179011e-004
1.659999999999987e+000	7.370567e-001	2.179005e-004
1.664999999999987e+000	7.372307e-001	2.178998e-004
1.669999999999986e+000	7.374040e-001	2.178992e-004
1.674999999999986e+000	7.375767e-001	2.178986e-004
1.679999999999986e+000	7.377487e-001	2.178979e-004
1.684999999999986e+000	7.379200e-001	2.178973e-004
1.689999999999986e+000	7.380907e-001	2.178967e-004
1.694999999999986e+000	7.382606e-001	2.178960e-004
1.699999999999986e+000	7.384300e-001	2.178954e-004
1.704999999999986e+000	7.385987e-001	2.178948e-004
1.709999999999986e+000	7.387667e-001	2.178942e-004
1.714999999999985e+000	7.389342e-001	2.178935e-004
1.719999999999985e+000	7.391009e-001	2.178929e-004
1.724999999999985e+000	7.392671e-001	2.178922e-004
1.729999999999985e+000	7.394326e-001	2.178916e-004
1.734999999999985e+000	7.395976e-001	2.178910e-004
1.739999999999985e+000	7.397619e-001	2.178904e-004
1.744999999999985e+000	7.399256e-001	2.178897e-004
1.749999999999985e+000	7.400887e-001	2.178891e-004
1.754999999999985e+000	7.402512e-001	2.178885e-004
1.759999999999985e+000	7.404132e-001	2.178878e-004
1.764999999999984e+000	7.405746e-001	2.178872e-004
1.769999999999984e+000	7.407354e-001	2.178866e-004
1.774999999999984e+000	7.408956e-001	2.178859e-004
1.779999999999984e+000	7.410553e-001	2.178853e-004
1.784999999999984e+000	7.412144e-001	2.178847e-004
1.789999999999984e+000	7.413730e-001	2.178840e-004
1.794999999999984e+000	7.415310e-001	2.178834e-004
1.799999999999984e+000	7.416884e-001	2.178828e-004
1.804999999999984e+000	7.418454e-001	2.178821e-004
1.809999999999983e+000	7.420018e-001	2.178815e-004
1.814999999999983e+000	7.421576e-001	2.178809e-004
1.819999999999983e+000	7.423130e-001	2.178802e-004
1.824999999999983e+000	7.424678e-001	2.178796e-004
1.829999999999983e+000	7.426221e-001	2.178790e-004
1.834999999999983e+000	7.427759e-001	2.178783e-004
1.839999999999983e+000	7.429292e-001	2.178777e-004
1.844999999999983e+000	7.430819e-001	2.178771e-004
1.849999999999983e+000	7.432342e-001	2.178764e-004
1.854999999999982e+000	7.433860e-001	2.178758e-004
1.859999999999982e+000	7.435373e-001	2.178752e-004
1.864999999999982e+000	7.436881e-001	2.178745e-004
1.869999999999982e+000	7.438384e-001	2.178739e-004
1.874999999999982e+000	7.439882e-001	2.178733e-004
1.879999999999982e+000	7.441376e-001	2.178727e-004
1.884999999999982e+000	7.442865e-001	2.178720e-004
1.889999999999982e+000	7.444350e-001	2.178714e-004
1.894999999999982e+000	7.445829e-001	2.178708e-004
1.899999999999982e+000	7.447304e-001	2.178701e-004
1.904999999999981e+000	7.448775e-001	2.178695e-004
1.909999999999981e+000	7.450240e-001	2.178689e-004
1.914999999999981e+000	7.451702e-001	2.178682e-004
1.919999999999981e+000	7.453159e-001	2.178676e-004
1.924999999999981e+000	7.454612e-001	2.178670e-004
1.929999999999981e+000	7.456060e-001	2.178663e-004
1.934999999999981e+000	7.457504e-001	2.178657e-004
1.939999999999981e+000	7.458943e-001	2.178651e-004
1.944999999999981e+000	7.460378e-001	2.178644e-004
1.949999999999980e+000	7.461810e-001	2.178638e-004
