vcc	V(ce)	Ic(Q1)
0.000000000000000e+000	0.000000e+000	-1.080608e-004
1.000000000000000e-004	1.000000e-004	-1.061554e-004
2.000000000000000e-004	2.000000e-004	-1.042570e-004
3.000000000000000e-004	3.000000e-004	-1.023655e-004
4.000000000000000e-004	4.000000e-004	-1.004809e-004
5.000000000000000e-004	5.000000e-004	-9.860324e-005
6.000000000000001e-004	6.000000e-004	-9.673244e-005
7.000000000000001e-004	7.000000e-004	-9.486850e-005
8.000000000000002e-004	8.000000e-004	-9.301139e-005
9.000000000000002e-004	9.000000e-004	-9.116108e-005
1.000000000000000e-003	1.000000e-003	-8.931755e-005
1.100000000000000e-003	1.100000e-003	-8.748077e-005
1.200000000000000e-003	1.200000e-003	-8.565072e-005
1.300000000000000e-003	1.300000e-003	-8.382739e-005
1.400000000000000e-003	1.400000e-003	-8.201074e-005
1.500000000000001e-003	1.500000e-003	-8.020075e-005
1.600000000000001e-003	1.600000e-003	-7.839739e-005
1.700000000000001e-003	1.700000e-003	-7.660065e-005
1.800000000000001e-003	1.800000e-003	-7.481050e-005
1.900000000000001e-003	1.900000e-003	-7.302692e-005
2.000000000000001e-003	2.000000e-003	-7.124988e-005
2.100000000000000e-003	2.100000e-003	-6.947936e-005
2.200000000000000e-003	2.200000e-003	-6.771535e-005
2.300000000000000e-003	2.300000e-003	-6.595781e-005
2.400000000000000e-003	2.400000e-003	-6.420672e-005
2.500000000000000e-003	2.500000e-003	-6.246206e-005
2.599999999999999e-003	2.600000e-003	-6.072381e-005
2.699999999999999e-003	2.700000e-003	-5.899194e-005
2.799999999999999e-003	2.800000e-003	-5.726644e-005
2.899999999999999e-003	2.900000e-003	-5.554727e-005
2.999999999999999e-003	3.000000e-003	-5.383442e-005
3.099999999999999e-003	3.100000e-003	-5.212787e-005
3.199999999999998e-003	3.200000e-003	-5.042760e-005
3.299999999999998e-003	3.300000e-003	-4.873357e-005
3.399999999999998e-003	3.400000e-003	-4.704577e-005
3.499999999999998e-003	3.500000e-003	-4.536418e-005
3.599999999999998e-003	3.600000e-003	-4.368877e-005
3.699999999999998e-003	3.700000e-003	-4.201952e-005
3.799999999999997e-003	3.800000e-003	-4.035642e-005
3.899999999999997e-003	3.900000e-003	-3.869943e-005
3.999999999999998e-003	4.000000e-003	-3.704855e-005
4.099999999999998e-003	4.100000e-003	-3.540374e-005
4.199999999999998e-003	4.200000e-003	-3.376498e-005
4.299999999999998e-003	4.300000e-003	-3.213226e-005
4.399999999999999e-003	4.400000e-003	-3.050555e-005
4.499999999999999e-003	4.500000e-003	-2.888482e-005
4.599999999999999e-003	4.600000e-003	-2.727007e-005
4.699999999999999e-003	4.700000e-003	-2.566127e-005
4.800000000000000e-003	4.800000e-003	-2.405839e-005
4.900000000000000e-003	4.900000e-003	-2.246142e-005
5.000000000000000e-003	5.000000e-003	-2.087033e-005
5.100000000000000e-003	5.100000e-003	-1.928511e-005
5.200000000000001e-003	5.200000e-003	-1.770573e-005
5.300000000000001e-003	5.300000e-003	-1.613217e-005
5.400000000000001e-003	5.400000e-003	-1.456442e-005
5.500000000000001e-003	5.500000e-003	-1.300244e-005
5.600000000000002e-003	5.600000e-003	-1.144623e-005
5.700000000000002e-003	5.700000e-003	-9.895754e-006
5.800000000000002e-003	5.800000e-003	-8.350999e-006
5.900000000000003e-003	5.900000e-003	-6.811944e-006
6.000000000000003e-003	6.000000e-003	-5.278568e-006
6.100000000000003e-003	6.100000e-003	-3.750850e-006
6.200000000000003e-003	6.200000e-003	-2.228771e-006
6.300000000000004e-003	6.300000e-003	-7.123100e-007
6.400000000000004e-003	6.400000e-003	7.985524e-007
6.500000000000004e-003	6.500000e-003	2.303836e-006
6.600000000000004e-003	6.600000e-003	3.803562e-006
6.700000000000005e-003	6.700000e-003	5.297749e-006
6.800000000000005e-003	6.800000e-003	6.786417e-006
6.900000000000005e-003	6.900000e-003	8.269585e-006
7.000000000000005e-003	7.000000e-003	9.747274e-006
7.100000000000006e-003	7.100000e-003	1.121950e-005
7.200000000000006e-003	7.200000e-003	1.268629e-005
7.300000000000006e-003	7.300000e-003	1.414766e-005
7.400000000000006e-003	7.400000e-003	1.560362e-005
7.500000000000007e-003	7.500000e-003	1.705421e-005
7.600000000000007e-003	7.600000e-003	1.849943e-005
7.700000000000007e-003	7.700000e-003	1.993930e-005
7.800000000000007e-003	7.800000e-003	2.137385e-005
7.900000000000008e-003	7.900000e-003	2.280310e-005
8.000000000000007e-003	8.000000e-003	2.422706e-005
8.100000000000007e-003	8.100000e-003	2.564575e-005
8.200000000000006e-003	8.200000e-003	2.705919e-005
8.300000000000005e-003	8.300000e-003	2.846740e-005
8.400000000000005e-003	8.400000e-003	2.987040e-005
8.500000000000004e-003	8.500000e-003	3.126821e-005
8.600000000000004e-003	8.600000e-003	3.266084e-005
8.700000000000003e-003	8.700000e-003	3.404831e-005
8.800000000000002e-003	8.800000e-003	3.543065e-005
8.900000000000002e-003	8.900000e-003	3.680788e-005
9.000000000000001e-003	9.000000e-003	3.817999e-005
9.100000000000000e-003	9.100000e-003	3.954703e-005
9.200000000000000e-003	9.200000e-003	4.090901e-005
9.299999999999999e-003	9.300000e-003	4.226594e-005
9.399999999999999e-003	9.400000e-003	4.361784e-005
9.499999999999998e-003	9.500000e-003	4.496473e-005
9.599999999999997e-003	9.600000e-003	4.630663e-005
9.699999999999997e-003	9.700000e-003	4.764356e-005
9.799999999999996e-003	9.800000e-003	4.897553e-005
9.899999999999996e-003	9.900000e-003	5.030256e-005
9.999999999999995e-003	1.000000e-002	5.162468e-005
1.009999999999999e-002	1.010000e-002	5.294189e-005
1.019999999999999e-002	1.020000e-002	5.425421e-005
1.029999999999999e-002	1.030000e-002	5.556167e-005
1.039999999999999e-002	1.040000e-002	5.686428e-005
1.049999999999999e-002	1.050000e-002	5.816206e-005
1.059999999999999e-002	1.060000e-002	5.945502e-005
1.069999999999999e-002	1.070000e-002	6.074319e-005
1.079999999999999e-002	1.080000e-002	6.202657e-005
1.089999999999999e-002	1.090000e-002	6.330519e-005
1.099999999999999e-002	1.100000e-002	6.457907e-005
1.109999999999999e-002	1.110000e-002	6.584822e-005
1.119999999999999e-002	1.120000e-002	6.711265e-005
1.129999999999999e-002	1.130000e-002	6.837239e-005
1.139999999999999e-002	1.140000e-002	6.962746e-005
1.149999999999999e-002	1.150000e-002	7.087786e-005
1.159999999999999e-002	1.160000e-002	7.212362e-005
1.169999999999999e-002	1.170000e-002	7.336475e-005
1.179999999999998e-002	1.180000e-002	7.460127e-005
1.189999999999998e-002	1.190000e-002	7.583320e-005
1.199999999999998e-002	1.200000e-002	7.706055e-005
1.209999999999998e-002	1.210000e-002	7.828334e-005
1.219999999999998e-002	1.220000e-002	7.950159e-005
1.229999999999998e-002	1.230000e-002	8.071530e-005
1.239999999999998e-002	1.240000e-002	8.192451e-005
1.249999999999998e-002	1.250000e-002	8.312922e-005
1.259999999999998e-002	1.260000e-002	8.432945e-005
1.269999999999998e-002	1.270000e-002	8.552522e-005
1.279999999999998e-002	1.280000e-002	8.671655e-005
1.289999999999998e-002	1.290000e-002	8.790344e-005
1.299999999999998e-002	1.300000e-002	8.908592e-005
1.309999999999998e-002	1.310000e-002	9.026400e-005
1.319999999999998e-002	1.320000e-002	9.143770e-005
1.329999999999998e-002	1.330000e-002	9.260703e-005
1.339999999999997e-002	1.340000e-002	9.377201e-005
1.349999999999997e-002	1.350000e-002	9.493266e-005
1.359999999999997e-002	1.360000e-002	9.608899e-005
1.369999999999997e-002	1.370000e-002	9.724101e-005
1.379999999999997e-002	1.380000e-002	9.838874e-005
1.389999999999997e-002	1.390000e-002	9.953220e-005
1.399999999999997e-002	1.400000e-002	1.006714e-004
1.409999999999997e-002	1.410000e-002	1.018064e-004
1.419999999999997e-002	1.420000e-002	1.029371e-004
1.429999999999997e-002	1.430000e-002	1.040636e-004
1.439999999999997e-002	1.440000e-002	1.051860e-004
1.449999999999997e-002	1.450000e-002	1.063041e-004
1.459999999999997e-002	1.460000e-002	1.074181e-004
1.469999999999997e-002	1.470000e-002	1.085280e-004
1.479999999999997e-002	1.480000e-002	1.096337e-004
1.489999999999997e-002	1.490000e-002	1.107352e-004
1.499999999999997e-002	1.500000e-002	1.118327e-004
1.509999999999996e-002	1.510000e-002	1.129261e-004
1.519999999999996e-002	1.520000e-002	1.140154e-004
1.529999999999996e-002	1.530000e-002	1.151007e-004
1.539999999999996e-002	1.540000e-002	1.161819e-004
1.549999999999996e-002	1.550000e-002	1.172591e-004
1.559999999999996e-002	1.560000e-002	1.183322e-004
1.569999999999996e-002	1.570000e-002	1.194014e-004
1.579999999999996e-002	1.580000e-002	1.204666e-004
1.589999999999996e-002	1.590000e-002	1.215278e-004
1.599999999999996e-002	1.600000e-002	1.225850e-004
1.609999999999996e-002	1.610000e-002	1.236383e-004
1.619999999999996e-002	1.620000e-002	1.246877e-004
1.629999999999996e-002	1.630000e-002	1.257331e-004
1.639999999999996e-002	1.640000e-002	1.267747e-004
1.649999999999996e-002	1.650000e-002	1.278124e-004
1.659999999999996e-002	1.660000e-002	1.288461e-004
1.669999999999995e-002	1.670000e-002	1.298761e-004
1.679999999999995e-002	1.680000e-002	1.309022e-004
1.689999999999995e-002	1.690000e-002	1.319244e-004
1.699999999999995e-002	1.700000e-002	1.329429e-004
1.709999999999995e-002	1.710000e-002	1.339575e-004
1.719999999999995e-002	1.720000e-002	1.349684e-004
1.729999999999995e-002	1.730000e-002	1.359755e-004
1.739999999999995e-002	1.740000e-002	1.369788e-004
1.749999999999995e-002	1.750000e-002	1.379784e-004
1.759999999999995e-002	1.760000e-002	1.389742e-004
1.769999999999995e-002	1.770000e-002	1.399664e-004
1.779999999999995e-002	1.780000e-002	1.409548e-004
1.789999999999995e-002	1.790000e-002	1.419395e-004
1.799999999999995e-002	1.800000e-002	1.429206e-004
1.809999999999995e-002	1.810000e-002	1.438979e-004
1.819999999999995e-002	1.820000e-002	1.448717e-004
1.829999999999995e-002	1.830000e-002	1.458418e-004
1.839999999999994e-002	1.840000e-002	1.468082e-004
1.849999999999994e-002	1.850000e-002	1.477711e-004
1.859999999999994e-002	1.860000e-002	1.487303e-004
1.869999999999994e-002	1.870000e-002	1.496860e-004
1.879999999999994e-002	1.880000e-002	1.506381e-004
1.889999999999994e-002	1.890000e-002	1.515866e-004
1.899999999999994e-002	1.900000e-002	1.525316e-004
1.909999999999994e-002	1.910000e-002	1.534731e-004
1.919999999999994e-002	1.920000e-002	1.544110e-004
1.929999999999994e-002	1.930000e-002	1.553455e-004
1.939999999999994e-002	1.940000e-002	1.562764e-004
1.949999999999994e-002	1.950000e-002	1.572039e-004
1.959999999999994e-002	1.960000e-002	1.581278e-004
1.969999999999994e-002	1.970000e-002	1.590484e-004
1.979999999999994e-002	1.980000e-002	1.599655e-004
1.989999999999994e-002	1.990000e-002	1.608791e-004
1.999999999999993e-002	2.000000e-002	1.617894e-004
2.009999999999993e-002	2.010000e-002	1.626962e-004
2.019999999999993e-002	2.020000e-002	1.635996e-004
2.029999999999993e-002	2.030000e-002	1.644997e-004
2.039999999999993e-002	2.040000e-002	1.653964e-004
2.049999999999993e-002	2.050000e-002	1.662897e-004
2.059999999999993e-002	2.060000e-002	1.671797e-004
2.069999999999993e-002	2.070000e-002	1.680663e-004
2.079999999999993e-002	2.080000e-002	1.689497e-004
2.089999999999993e-002	2.090000e-002	1.698297e-004
2.099999999999993e-002	2.100000e-002	1.707064e-004
2.109999999999993e-002	2.110000e-002	1.715799e-004
2.119999999999993e-002	2.120000e-002	1.724501e-004
2.129999999999993e-002	2.130000e-002	1.733170e-004
2.139999999999993e-002	2.140000e-002	1.741807e-004
2.149999999999993e-002	2.150000e-002	1.750411e-004
2.159999999999993e-002	2.160000e-002	1.758983e-004
2.169999999999992e-002	2.170000e-002	1.767523e-004
2.179999999999992e-002	2.180000e-002	1.776031e-004
2.189999999999992e-002	2.190000e-002	1.784507e-004
2.199999999999992e-002	2.200000e-002	1.792952e-004
2.209999999999992e-002	2.210000e-002	1.801365e-004
2.219999999999992e-002	2.220000e-002	1.809746e-004
2.229999999999992e-002	2.230000e-002	1.818096e-004
2.239999999999992e-002	2.240000e-002	1.826414e-004
2.249999999999992e-002	2.250000e-002	1.834702e-004
2.259999999999992e-002	2.260000e-002	1.842958e-004
2.269999999999992e-002	2.270000e-002	1.851183e-004
2.279999999999992e-002	2.280000e-002	1.859378e-004
2.289999999999992e-002	2.290000e-002	1.867541e-004
2.299999999999992e-002	2.300000e-002	1.875675e-004
2.309999999999992e-002	2.310000e-002	1.883777e-004
2.319999999999992e-002	2.320000e-002	1.891850e-004
2.329999999999992e-002	2.330000e-002	1.899892e-004
2.339999999999991e-002	2.340000e-002	1.907903e-004
2.349999999999991e-002	2.350000e-002	1.915885e-004
2.359999999999991e-002	2.360000e-002	1.923837e-004
2.369999999999991e-002	2.370000e-002	1.931759e-004
2.379999999999991e-002	2.380000e-002	1.939652e-004
2.389999999999991e-002	2.390000e-002	1.947514e-004
2.399999999999991e-002	2.400000e-002	1.955348e-004
2.409999999999991e-002	2.410000e-002	1.963151e-004
2.419999999999991e-002	2.420000e-002	1.970926e-004
2.429999999999991e-002	2.430000e-002	1.978671e-004
2.439999999999991e-002	2.440000e-002	1.986388e-004
2.449999999999991e-002	2.450000e-002	1.994075e-004
2.459999999999991e-002	2.460000e-002	2.001733e-004
2.469999999999991e-002	2.470000e-002	2.009363e-004
2.479999999999991e-002	2.480000e-002	2.016964e-004
2.489999999999991e-002	2.490000e-002	2.024537e-004
2.499999999999990e-002	2.500000e-002	2.032081e-004
2.509999999999990e-002	2.510000e-002	2.039597e-004
2.519999999999990e-002	2.520000e-002	2.047084e-004
2.529999999999990e-002	2.530000e-002	2.054544e-004
2.539999999999990e-002	2.540000e-002	2.061975e-004
2.549999999999990e-002	2.550000e-002	2.069379e-004
2.559999999999990e-002	2.560000e-002	2.076755e-004
2.569999999999990e-002	2.570000e-002	2.084103e-004
2.579999999999990e-002	2.580000e-002	2.091423e-004
2.589999999999990e-002	2.590000e-002	2.098716e-004
2.599999999999990e-002	2.600000e-002	2.105982e-004
2.609999999999990e-002	2.610000e-002	2.113220e-004
2.619999999999990e-002	2.620000e-002	2.120431e-004
2.629999999999990e-002	2.630000e-002	2.127615e-004
2.639999999999990e-002	2.640000e-002	2.134772e-004
2.649999999999990e-002	2.650000e-002	2.141902e-004
2.659999999999990e-002	2.660000e-002	2.149006e-004
2.669999999999989e-002	2.670000e-002	2.156082e-004
2.679999999999989e-002	2.680000e-002	2.163132e-004
2.689999999999989e-002	2.690000e-002	2.170156e-004
2.699999999999989e-002	2.700000e-002	2.177153e-004
2.709999999999989e-002	2.710000e-002	2.184124e-004
2.719999999999989e-002	2.720000e-002	2.191068e-004
2.729999999999989e-002	2.730000e-002	2.197987e-004
2.739999999999989e-002	2.740000e-002	2.204880e-004
2.749999999999989e-002	2.750000e-002	2.211746e-004
2.759999999999989e-002	2.760000e-002	2.218587e-004
2.769999999999989e-002	2.770000e-002	2.225402e-004
2.779999999999989e-002	2.780000e-002	2.232192e-004
2.789999999999989e-002	2.790000e-002	2.238955e-004
2.799999999999989e-002	2.800000e-002	2.245694e-004
2.809999999999989e-002	2.810000e-002	2.252407e-004
2.819999999999989e-002	2.820000e-002	2.259095e-004
2.829999999999988e-002	2.830000e-002	2.265758e-004
2.839999999999988e-002	2.840000e-002	2.272396e-004
2.849999999999988e-002	2.850000e-002	2.279008e-004
2.859999999999988e-002	2.860000e-002	2.285596e-004
2.869999999999988e-002	2.870000e-002	2.292159e-004
2.879999999999988e-002	2.880000e-002	2.298698e-004
2.889999999999988e-002	2.890000e-002	2.305211e-004
2.899999999999988e-002	2.900000e-002	2.311701e-004
2.909999999999988e-002	2.910000e-002	2.318165e-004
2.919999999999988e-002	2.920000e-002	2.324606e-004
2.929999999999988e-002	2.930000e-002	2.331022e-004
2.939999999999988e-002	2.940000e-002	2.337414e-004
2.949999999999988e-002	2.950000e-002	2.343783e-004
2.959999999999988e-002	2.960000e-002	2.350127e-004
2.969999999999988e-002	2.970000e-002	2.356447e-004
2.979999999999988e-002	2.980000e-002	2.362744e-004
2.989999999999988e-002	2.990000e-002	2.369016e-004
2.999999999999987e-002	3.000000e-002	2.375265e-004
3.009999999999987e-002	3.010000e-002	2.381491e-004
3.019999999999987e-002	3.020000e-002	2.387693e-004
3.029999999999987e-002	3.030000e-002	2.393872e-004
3.039999999999987e-002	3.040000e-002	2.400028e-004
3.049999999999987e-002	3.050000e-002	2.406160e-004
3.059999999999987e-002	3.060000e-002	2.412269e-004
3.069999999999987e-002	3.070000e-002	2.418356e-004
3.079999999999987e-002	3.080000e-002	2.424419e-004
3.089999999999987e-002	3.090000e-002	2.430460e-004
3.099999999999987e-002	3.100000e-002	2.436478e-004
3.109999999999987e-002	3.110000e-002	2.442473e-004
3.119999999999987e-002	3.120000e-002	2.448445e-004
3.129999999999987e-002	3.130000e-002	2.454395e-004
3.139999999999987e-002	3.140000e-002	2.460323e-004
3.149999999999988e-002	3.150000e-002	2.466228e-004
3.159999999999988e-002	3.160000e-002	2.472111e-004
3.169999999999988e-002	3.170000e-002	2.477972e-004
3.179999999999988e-002	3.180000e-002	2.483811e-004
3.189999999999989e-002	3.190000e-002	2.489628e-004
3.199999999999989e-002	3.200000e-002	2.495423e-004
3.209999999999989e-002	3.210000e-002	2.501196e-004
3.219999999999990e-002	3.220000e-002	2.506947e-004
3.229999999999990e-002	3.230000e-002	2.512677e-004
3.239999999999990e-002	3.240000e-002	2.518385e-004
3.249999999999990e-002	3.250000e-002	2.524072e-004
3.259999999999991e-002	3.260000e-002	2.529737e-004
3.269999999999991e-002	3.270000e-002	2.535381e-004
3.279999999999991e-002	3.280000e-002	2.541003e-004
3.289999999999992e-002	3.290000e-002	2.546605e-004
3.299999999999992e-002	3.300000e-002	2.552185e-004
3.309999999999992e-002	3.310000e-002	2.557744e-004
3.319999999999992e-002	3.320000e-002	2.563282e-004
3.329999999999993e-002	3.330000e-002	2.568800e-004
3.339999999999993e-002	3.340000e-002	2.574296e-004
3.349999999999993e-002	3.350000e-002	2.579772e-004
3.359999999999994e-002	3.360000e-002	2.585227e-004
3.369999999999994e-002	3.370000e-002	2.590662e-004
3.379999999999994e-002	3.380000e-002	2.596076e-004
3.389999999999994e-002	3.390000e-002	2.601470e-004
3.399999999999995e-002	3.400000e-002	2.606843e-004
3.409999999999995e-002	3.410000e-002	2.612196e-004
3.419999999999995e-002	3.420000e-002	2.617529e-004
3.429999999999996e-002	3.430000e-002	2.622842e-004
3.439999999999996e-002	3.440000e-002	2.628135e-004
3.449999999999996e-002	3.450000e-002	2.633408e-004
3.459999999999996e-002	3.460000e-002	2.638660e-004
3.469999999999997e-002	3.470000e-002	2.643894e-004
3.479999999999997e-002	3.480000e-002	2.649107e-004
3.489999999999997e-002	3.490000e-002	2.654301e-004
3.499999999999998e-002	3.500000e-002	2.659475e-004
3.509999999999998e-002	3.510000e-002	2.664629e-004
3.519999999999998e-002	3.520000e-002	2.669765e-004
3.529999999999998e-002	3.530000e-002	2.674880e-004
3.539999999999999e-002	3.540000e-002	2.679977e-004
3.549999999999999e-002	3.550000e-002	2.685054e-004
3.559999999999999e-002	3.560000e-002	2.690112e-004
3.570000000000000e-002	3.570000e-002	2.695151e-004
3.580000000000000e-002	3.580000e-002	2.700171e-004
3.590000000000000e-002	3.590000e-002	2.705173e-004
3.600000000000000e-002	3.600000e-002	2.710155e-004
3.610000000000001e-002	3.610000e-002	2.715118e-004
3.620000000000001e-002	3.620000e-002	2.720063e-004
3.630000000000001e-002	3.630000e-002	2.724989e-004
3.640000000000002e-002	3.640000e-002	2.729896e-004
3.650000000000002e-002	3.650000e-002	2.734785e-004
3.660000000000002e-002	3.660000e-002	2.739655e-004
3.670000000000002e-002	3.670000e-002	2.744508e-004
3.680000000000003e-002	3.680000e-002	2.749341e-004
3.690000000000003e-002	3.690000e-002	2.754157e-004
3.700000000000003e-002	3.700000e-002	2.758954e-004
3.710000000000004e-002	3.710000e-002	2.763733e-004
3.720000000000004e-002	3.720000e-002	2.768494e-004
3.730000000000004e-002	3.730000e-002	2.773238e-004
3.740000000000004e-002	3.740000e-002	2.777963e-004
3.750000000000005e-002	3.750000e-002	2.782670e-004
3.760000000000005e-002	3.760000e-002	2.787360e-004
3.770000000000005e-002	3.770000e-002	2.792032e-004
3.780000000000006e-002	3.780000e-002	2.796686e-004
3.790000000000006e-002	3.790000e-002	2.801323e-004
3.800000000000006e-002	3.800000e-002	2.805942e-004
3.810000000000006e-002	3.810000e-002	2.810544e-004
3.820000000000007e-002	3.820000e-002	2.815129e-004
3.830000000000007e-002	3.830000e-002	2.819696e-004
3.840000000000007e-002	3.840000e-002	2.824246e-004
3.850000000000008e-002	3.850000e-002	2.828778e-004
3.860000000000008e-002	3.860000e-002	2.833294e-004
3.870000000000008e-002	3.870000e-002	2.837792e-004
3.880000000000008e-002	3.880000e-002	2.842274e-004
3.890000000000009e-002	3.890000e-002	2.846738e-004
