vin	V(gs)	Id(M1)
-2.500000000000000e+000	-2.500000e+000	2.051204e-011
-2.499850000000000e+000	-2.499850e+000	2.051417e-011
-2.499700000000000e+000	-2.499700e+000	2.051626e-011
-2.499550000000000e+000	-2.499550e+000	2.051839e-011
-2.499400000000000e+000	-2.499400e+000	2.052052e-011
-2.499250000000000e+000	-2.499250e+000	2.052265e-011
-2.499099999999999e+000	-2.499100e+000	2.052483e-011
-2.498949999999999e+000	-2.498950e+000	2.052700e-011
-2.498799999999999e+000	-2.498800e+000	2.052918e-011
-2.498649999999999e+000	-2.498650e+000	2.053135e-011
-2.498499999999999e+000	-2.498500e+000	2.053353e-011
-2.498349999999999e+000	-2.498350e+000	2.053571e-011
-2.498199999999999e+000	-2.498200e+000	2.053793e-011
-2.498049999999999e+000	-2.498050e+000	2.054019e-011
-2.497899999999999e+000	-2.497900e+000	2.054237e-011
-2.497749999999999e+000	-2.497750e+000	2.054459e-011
-2.497599999999999e+000	-2.497600e+000	2.054681e-011
-2.497449999999998e+000	-2.497450e+000	2.054912e-011
-2.497299999999998e+000	-2.497300e+000	2.055134e-011
-2.497149999999998e+000	-2.497150e+000	2.055360e-011
-2.496999999999998e+000	-2.497000e+000	2.055591e-011
-2.496849999999998e+000	-2.496850e+000	2.055827e-011
-2.496699999999998e+000	-2.496700e+000	2.056053e-011
-2.496549999999998e+000	-2.496550e+000	2.056284e-011
-2.496399999999998e+000	-2.496400e+000	2.056515e-011
-2.496249999999998e+000	-2.496250e+000	2.056746e-011
-2.496099999999998e+000	-2.496100e+000	2.056981e-011
-2.495949999999997e+000	-2.495950e+000	2.057217e-011
-2.495799999999997e+000	-2.495800e+000	2.057452e-011
-2.495649999999997e+000	-2.495650e+000	2.057687e-011
-2.495499999999997e+000	-2.495500e+000	2.057927e-011
-2.495349999999997e+000	-2.495350e+000	2.058167e-011
-2.495199999999997e+000	-2.495200e+000	2.058407e-011
-2.495049999999997e+000	-2.495050e+000	2.058647e-011
-2.494899999999997e+000	-2.494900e+000	2.058891e-011
-2.494749999999997e+000	-2.494750e+000	2.059135e-011
-2.494599999999997e+000	-2.494600e+000	2.059375e-011
-2.494449999999997e+000	-2.494450e+000	2.059619e-011
-2.494299999999996e+000	-2.494300e+000	2.059868e-011
-2.494149999999996e+000	-2.494150e+000	2.060112e-011
-2.493999999999996e+000	-2.494000e+000	2.060365e-011
-2.493849999999996e+000	-2.493850e+000	2.060609e-011
-2.493699999999996e+000	-2.493700e+000	2.060867e-011
-2.493549999999996e+000	-2.493550e+000	2.061111e-011
-2.493399999999996e+000	-2.493400e+000	2.061364e-011
-2.493249999999996e+000	-2.493250e+000	2.061613e-011
-2.493099999999996e+000	-2.493100e+000	2.061871e-011
-2.492949999999996e+000	-2.492950e+000	2.062128e-011
-2.492799999999996e+000	-2.492800e+000	2.062386e-011
-2.492649999999995e+000	-2.492650e+000	2.062643e-011
-2.492499999999995e+000	-2.492500e+000	2.062897e-011
-2.492349999999995e+000	-2.492350e+000	2.063158e-011
-2.492199999999995e+000	-2.492200e+000	2.063421e-011
-2.492049999999995e+000	-2.492050e+000	2.063683e-011
-2.491899999999995e+000	-2.491900e+000	2.063945e-011
-2.491749999999995e+000	-2.491750e+000	2.064211e-011
-2.491599999999995e+000	-2.491600e+000	2.064477e-011
-2.491449999999995e+000	-2.491450e+000	2.064744e-011
-2.491299999999995e+000	-2.491300e+000	2.065010e-011
-2.491149999999994e+000	-2.491150e+000	2.065277e-011
-2.490999999999994e+000	-2.491000e+000	2.065548e-011
-2.490849999999994e+000	-2.490850e+000	2.065819e-011
-2.490699999999994e+000	-2.490700e+000	2.066094e-011
-2.490549999999994e+000	-2.490550e+000	2.066365e-011
-2.490399999999994e+000	-2.490400e+000	2.066640e-011
-2.490249999999994e+000	-2.490250e+000	2.066916e-011
-2.490099999999994e+000	-2.490100e+000	2.067191e-011
-2.489949999999994e+000	-2.489950e+000	2.067466e-011
-2.489799999999994e+000	-2.489800e+000	2.067750e-011
-2.489649999999994e+000	-2.489650e+000	2.068026e-011
-2.489499999999993e+000	-2.489500e+000	2.068310e-011
-2.489349999999993e+000	-2.489350e+000	2.068590e-011
-2.489199999999993e+000	-2.489200e+000	2.068874e-011
-2.489049999999993e+000	-2.489050e+000	2.069163e-011
-2.488899999999993e+000	-2.488900e+000	2.069447e-011
-2.488749999999993e+000	-2.488750e+000	2.069731e-011
-2.488599999999993e+000	-2.488600e+000	2.070020e-011
-2.488449999999993e+000	-2.488450e+000	2.070308e-011
-2.488299999999993e+000	-2.488300e+000	2.070602e-011
-2.488149999999993e+000	-2.488150e+000	2.070894e-011
-2.487999999999992e+000	-2.488000e+000	2.071188e-011
-2.487849999999992e+000	-2.487850e+000	2.071481e-011
-2.487699999999992e+000	-2.487700e+000	2.071774e-011
-2.487549999999992e+000	-2.487550e+000	2.072076e-011
-2.487399999999992e+000	-2.487400e+000	2.072378e-011
-2.487249999999992e+000	-2.487250e+000	2.072675e-011
-2.487099999999992e+000	-2.487100e+000	2.072973e-011
-2.486949999999992e+000	-2.486950e+000	2.073275e-011
-2.486799999999992e+000	-2.486800e+000	2.073586e-011
-2.486649999999992e+000	-2.486650e+000	2.073879e-011
-2.486499999999992e+000	-2.486500e+000	2.074190e-011
-2.486349999999991e+000	-2.486350e+000	2.074496e-011
-2.486199999999991e+000	-2.486200e+000	2.074807e-011
-2.486049999999991e+000	-2.486050e+000	2.075113e-011
-2.485899999999991e+000	-2.485900e+000	2.075429e-011
-2.485749999999991e+000	-2.485750e+000	2.075740e-011
-2.485599999999991e+000	-2.485600e+000	2.076055e-011
-2.485449999999991e+000	-2.485450e+000	2.076370e-011
-2.485299999999991e+000	-2.485300e+000	2.076686e-011
-2.485149999999991e+000	-2.485150e+000	2.077001e-011
-2.484999999999991e+000	-2.485000e+000	2.077321e-011
-2.484849999999991e+000	-2.484850e+000	2.077640e-011
-2.484699999999990e+000	-2.484700e+000	2.077960e-011
-2.484549999999990e+000	-2.484550e+000	2.078284e-011
-2.484399999999990e+000	-2.484400e+000	2.078608e-011
-2.484249999999990e+000	-2.484250e+000	2.078933e-011
-2.484099999999990e+000	-2.484100e+000	2.079266e-011
-2.483949999999990e+000	-2.483950e+000	2.079594e-011
-2.483799999999990e+000	-2.483800e+000	2.079919e-011
-2.483649999999990e+000	-2.483650e+000	2.080252e-011
-2.483499999999990e+000	-2.483500e+000	2.080585e-011
-2.483349999999990e+000	-2.483350e+000	2.080918e-011
-2.483199999999989e+000	-2.483200e+000	2.081251e-011
-2.483049999999989e+000	-2.483050e+000	2.081593e-011
-2.482899999999989e+000	-2.482900e+000	2.081926e-011
-2.482749999999989e+000	-2.482750e+000	2.082268e-011
-2.482599999999989e+000	-2.482600e+000	2.082610e-011
-2.482449999999989e+000	-2.482450e+000	2.082956e-011
-2.482299999999989e+000	-2.482300e+000	2.083294e-011
-2.482149999999989e+000	-2.482150e+000	2.083644e-011
-2.481999999999989e+000	-2.482000e+000	2.083982e-011
-2.481849999999989e+000	-2.481850e+000	2.084337e-011
-2.481699999999989e+000	-2.481700e+000	2.084683e-011
-2.481549999999988e+000	-2.481550e+000	2.085039e-011
-2.481399999999988e+000	-2.481400e+000	2.085390e-011
-2.481249999999988e+000	-2.481250e+000	2.085745e-011
-2.481099999999988e+000	-2.481100e+000	2.086105e-011
-2.480949999999988e+000	-2.480950e+000	2.086455e-011
-2.480799999999988e+000	-2.480800e+000	2.086815e-011
-2.480649999999988e+000	-2.480650e+000	2.087175e-011
-2.480499999999988e+000	-2.480500e+000	2.087539e-011
-2.480349999999988e+000	-2.480350e+000	2.087899e-011
-2.480199999999988e+000	-2.480200e+000	2.088267e-011
-2.480049999999987e+000	-2.480050e+000	2.088632e-011
-2.479899999999987e+000	-2.479900e+000	2.089000e-011
-2.479749999999987e+000	-2.479750e+000	2.089369e-011
-2.479599999999987e+000	-2.479600e+000	2.089737e-011
-2.479449999999987e+000	-2.479450e+000	2.090110e-011
-2.479299999999987e+000	-2.479300e+000	2.090483e-011
-2.479149999999987e+000	-2.479150e+000	2.090865e-011
-2.478999999999987e+000	-2.479000e+000	2.091238e-011
-2.478849999999987e+000	-2.478850e+000	2.091620e-011
-2.478699999999987e+000	-2.478700e+000	2.091998e-011
-2.478549999999987e+000	-2.478550e+000	2.092375e-011
-2.478399999999986e+000	-2.478400e+000	2.092766e-011
-2.478249999999986e+000	-2.478250e+000	2.093148e-011
-2.478099999999986e+000	-2.478100e+000	2.093534e-011
-2.477949999999986e+000	-2.477950e+000	2.093921e-011
-2.477799999999986e+000	-2.477800e+000	2.094311e-011
-2.477649999999986e+000	-2.477650e+000	2.094707e-011
-2.477499999999986e+000	-2.477500e+000	2.095097e-011
-2.477349999999986e+000	-2.477350e+000	2.095493e-011
-2.477199999999986e+000	-2.477200e+000	2.095892e-011
-2.477049999999986e+000	-2.477050e+000	2.096288e-011
-2.476899999999985e+000	-2.476900e+000	2.096692e-011
-2.476749999999985e+000	-2.476750e+000	2.097091e-011
-2.476599999999985e+000	-2.476600e+000	2.097491e-011
-2.476449999999985e+000	-2.476450e+000	2.097900e-011
-2.476299999999985e+000	-2.476300e+000	2.098308e-011
-2.476149999999985e+000	-2.476150e+000	2.098717e-011
-2.475999999999985e+000	-2.476000e+000	2.099121e-011
-2.475849999999985e+000	-2.475850e+000	2.099534e-011
-2.475699999999985e+000	-2.475700e+000	2.099951e-011
-2.475549999999985e+000	-2.475550e+000	2.100364e-011
-2.475399999999985e+000	-2.475400e+000	2.100782e-011
-2.475249999999984e+000	-2.475250e+000	2.101204e-011
-2.475099999999984e+000	-2.475100e+000	2.101621e-011
-2.474949999999984e+000	-2.474950e+000	2.102043e-011
-2.474799999999984e+000	-2.474800e+000	2.102465e-011
-2.474649999999984e+000	-2.474650e+000	2.102896e-011
-2.474499999999984e+000	-2.474500e+000	2.103322e-011
-2.474349999999984e+000	-2.474350e+000	2.103748e-011
-2.474199999999984e+000	-2.474200e+000	2.104179e-011
-2.474049999999984e+000	-2.474050e+000	2.104614e-011
-2.473899999999984e+000	-2.473900e+000	2.105049e-011
-2.473749999999984e+000	-2.473750e+000	2.105485e-011
-2.473599999999983e+000	-2.473600e+000	2.105924e-011
-2.473449999999983e+000	-2.473450e+000	2.106364e-011
-2.473299999999983e+000	-2.473300e+000	2.106808e-011
-2.473149999999983e+000	-2.473150e+000	2.107252e-011
-2.472999999999983e+000	-2.473000e+000	2.107696e-011
-2.472849999999983e+000	-2.472850e+000	2.108149e-011
-2.472699999999983e+000	-2.472700e+000	2.108593e-011
-2.472549999999983e+000	-2.472550e+000	2.109046e-011
-2.472399999999983e+000	-2.472400e+000	2.109499e-011
-2.472249999999983e+000	-2.472250e+000	2.109952e-011
-2.472099999999982e+000	-2.472100e+000	2.110410e-011
-2.471949999999982e+000	-2.471950e+000	2.110872e-011
-2.471799999999982e+000	-2.471800e+000	2.111333e-011
-2.471649999999982e+000	-2.471650e+000	2.111795e-011
-2.471499999999982e+000	-2.471500e+000	2.112261e-011
-2.471349999999982e+000	-2.471350e+000	2.112728e-011
-2.471199999999982e+000	-2.471200e+000	2.113199e-011
-2.471049999999982e+000	-2.471050e+000	2.113669e-011
-2.470899999999982e+000	-2.470900e+000	2.114140e-011
-2.470749999999982e+000	-2.470750e+000	2.114615e-011
-2.470599999999982e+000	-2.470600e+000	2.115090e-011
-2.470449999999981e+000	-2.470450e+000	2.115570e-011
-2.470299999999981e+000	-2.470300e+000	2.116050e-011
-2.470149999999981e+000	-2.470150e+000	2.116534e-011
-2.469999999999981e+000	-2.470000e+000	2.117022e-011
-2.469849999999981e+000	-2.469850e+000	2.117506e-011
-2.469699999999981e+000	-2.469700e+000	2.117995e-011
-2.469549999999981e+000	-2.469550e+000	2.118492e-011
-2.469399999999981e+000	-2.469400e+000	2.118981e-011
-2.469249999999981e+000	-2.469250e+000	2.119474e-011
-2.469099999999981e+000	-2.469100e+000	2.119975e-011
-2.468949999999980e+000	-2.468950e+000	2.120473e-011
-2.468799999999980e+000	-2.468800e+000	2.120970e-011
-2.468649999999980e+000	-2.468650e+000	2.121476e-011
-2.468499999999980e+000	-2.468500e+000	2.121983e-011
-2.468349999999980e+000	-2.468350e+000	2.122489e-011
-2.468199999999980e+000	-2.468200e+000	2.122995e-011
-2.468049999999980e+000	-2.468050e+000	2.123510e-011
-2.467899999999980e+000	-2.467900e+000	2.124030e-011
-2.467749999999980e+000	-2.467750e+000	2.124545e-011
-2.467599999999980e+000	-2.467600e+000	2.125060e-011
-2.467449999999980e+000	-2.467450e+000	2.125575e-011
-2.467299999999979e+000	-2.467300e+000	2.126099e-011
-2.467149999999979e+000	-2.467150e+000	2.126628e-011
-2.466999999999979e+000	-2.467000e+000	2.127156e-011
-2.466849999999979e+000	-2.466850e+000	2.127685e-011
-2.466699999999979e+000	-2.466700e+000	2.128218e-011
-2.466549999999979e+000	-2.466550e+000	2.128750e-011
-2.466399999999979e+000	-2.466400e+000	2.129288e-011
-2.466249999999979e+000	-2.466250e+000	2.129830e-011
-2.466099999999979e+000	-2.466100e+000	2.130367e-011
-2.465949999999979e+000	-2.465950e+000	2.130909e-011
-2.465799999999979e+000	-2.465800e+000	2.131455e-011
-2.465649999999978e+000	-2.465650e+000	2.132006e-011
-2.465499999999978e+000	-2.465500e+000	2.132552e-011
-2.465349999999978e+000	-2.465350e+000	2.133103e-011
-2.465199999999978e+000	-2.465200e+000	2.133658e-011
-2.465049999999978e+000	-2.465050e+000	2.134217e-011
-2.464899999999978e+000	-2.464900e+000	2.134772e-011
-2.464749999999978e+000	-2.464750e+000	2.135336e-011
-2.464599999999978e+000	-2.464600e+000	2.135900e-011
-2.464449999999978e+000	-2.464450e+000	2.136464e-011
-2.464299999999978e+000	-2.464300e+000	2.137037e-011
-2.464149999999977e+000	-2.464150e+000	2.137606e-011
-2.463999999999977e+000	-2.464000e+000	2.138179e-011
-2.463849999999977e+000	-2.463850e+000	2.138756e-011
-2.463699999999977e+000	-2.463700e+000	2.139333e-011
-2.463549999999977e+000	-2.463550e+000	2.139915e-011
-2.463399999999977e+000	-2.463400e+000	2.140492e-011
-2.463249999999977e+000	-2.463250e+000	2.141078e-011
-2.463099999999977e+000	-2.463100e+000	2.141669e-011
-2.462949999999977e+000	-2.462950e+000	2.142264e-011
-2.462799999999977e+000	-2.462800e+000	2.142855e-011
-2.462649999999977e+000	-2.462650e+000	2.143450e-011
-2.462499999999976e+000	-2.462500e+000	2.144045e-011
-2.462349999999976e+000	-2.462350e+000	2.144645e-011
-2.462199999999976e+000	-2.462200e+000	2.145248e-011
-2.462049999999976e+000	-2.462050e+000	2.145857e-011
-2.461899999999976e+000	-2.461900e+000	2.146461e-011
-2.461749999999976e+000	-2.461750e+000	2.147074e-011
-2.461599999999976e+000	-2.461600e+000	2.147687e-011
-2.461449999999976e+000	-2.461450e+000	2.148299e-011
-2.461299999999976e+000	-2.461300e+000	2.148917e-011
-2.461149999999976e+000	-2.461150e+000	2.149543e-011
-2.460999999999975e+000	-2.461000e+000	2.150164e-011
-2.460849999999975e+000	-2.460850e+000	2.150791e-011
-2.460699999999975e+000	-2.460700e+000	2.151421e-011
-2.460549999999975e+000	-2.460550e+000	2.152052e-011
-2.460399999999975e+000	-2.460400e+000	2.152687e-011
-2.460249999999975e+000	-2.460250e+000	2.153322e-011
-2.460099999999975e+000	-2.460100e+000	2.153957e-011
-2.459949999999975e+000	-2.459950e+000	2.154601e-011
-2.459799999999975e+000	-2.459800e+000	2.155249e-011
-2.459649999999975e+000	-2.459650e+000	2.155893e-011
-2.459499999999975e+000	-2.459500e+000	2.156546e-011
-2.459349999999974e+000	-2.459350e+000	2.157199e-011
-2.459199999999974e+000	-2.459200e+000	2.157852e-011
-2.459049999999974e+000	-2.459050e+000	2.158513e-011
-2.458899999999974e+000	-2.458900e+000	2.159171e-011
-2.458749999999974e+000	-2.458750e+000	2.159837e-011
-2.458599999999974e+000	-2.458600e+000	2.160503e-011
-2.458449999999974e+000	-2.458450e+000	2.161169e-011
-2.458299999999974e+000	-2.458300e+000	2.161844e-011
-2.458149999999974e+000	-2.458150e+000	2.162523e-011
-2.457999999999974e+000	-2.458000e+000	2.163198e-011
-2.457849999999973e+000	-2.457850e+000	2.163878e-011
-2.457699999999973e+000	-2.457700e+000	2.164562e-011
-2.457549999999973e+000	-2.457550e+000	2.165250e-011
-2.457399999999973e+000	-2.457400e+000	2.165939e-011
-2.457249999999973e+000	-2.457250e+000	2.166631e-011
-2.457099999999973e+000	-2.457100e+000	2.167324e-011
-2.456949999999973e+000	-2.456950e+000	2.168026e-011
-2.456799999999973e+000	-2.456800e+000	2.168727e-011
-2.456649999999973e+000	-2.456650e+000	2.169425e-011
-2.456499999999973e+000	-2.456500e+000	2.170135e-011
-2.456349999999973e+000	-2.456350e+000	2.170841e-011
-2.456199999999972e+000	-2.456200e+000	2.171556e-011
-2.456049999999972e+000	-2.456050e+000	2.172271e-011
-2.455899999999972e+000	-2.455900e+000	2.172991e-011
-2.455749999999972e+000	-2.455750e+000	2.173715e-011
-2.455599999999972e+000	-2.455600e+000	2.174443e-011
-2.455449999999972e+000	-2.455450e+000	2.175167e-011
-2.455299999999972e+000	-2.455300e+000	2.175899e-011
-2.455149999999972e+000	-2.455150e+000	2.176632e-011
-2.454999999999972e+000	-2.455000e+000	2.177369e-011
-2.454849999999972e+000	-2.454850e+000	2.178111e-011
-2.454699999999972e+000	-2.454700e+000	2.178853e-011
-2.454549999999971e+000	-2.454550e+000	2.179603e-011
-2.454399999999971e+000	-2.454400e+000	2.180349e-011
-2.454249999999971e+000	-2.454250e+000	2.181100e-011
-2.454099999999971e+000	-2.454100e+000	2.181859e-011
-2.453949999999971e+000	-2.453950e+000	2.182618e-011
-2.453799999999971e+000	-2.453800e+000	2.183382e-011
-2.453649999999971e+000	-2.453650e+000	2.184146e-011
-2.453499999999971e+000	-2.453500e+000	2.184910e-011
-2.453349999999971e+000	-2.453350e+000	2.185683e-011
-2.453199999999971e+000	-2.453200e+000	2.186460e-011
-2.453049999999970e+000	-2.453050e+000	2.187242e-011
-2.452899999999970e+000	-2.452900e+000	2.188023e-011
-2.452749999999970e+000	-2.452750e+000	2.188805e-011
-2.452599999999970e+000	-2.452600e+000	2.189595e-011
-2.452449999999970e+000	-2.452450e+000	2.190386e-011
-2.452299999999970e+000	-2.452300e+000	2.191176e-011
-2.452149999999970e+000	-2.452150e+000	2.191975e-011
-2.451999999999970e+000	-2.452000e+000	2.192779e-011
-2.451849999999970e+000	-2.451850e+000	2.193583e-011
-2.451699999999970e+000	-2.451700e+000	2.194391e-011
-2.451549999999970e+000	-2.451550e+000	2.195204e-011
-2.451399999999969e+000	-2.451400e+000	2.196017e-011
-2.451249999999969e+000	-2.451250e+000	2.196834e-011
-2.451099999999969e+000	-2.451100e+000	2.197660e-011
-2.450949999999969e+000	-2.450950e+000	2.198486e-011
-2.450799999999969e+000	-2.450800e+000	2.199316e-011
-2.450649999999969e+000	-2.450650e+000	2.200147e-011
-2.450499999999969e+000	-2.450500e+000	2.200982e-011
-2.450349999999969e+000	-2.450350e+000	2.201817e-011
-2.450199999999969e+000	-2.450200e+000	2.202665e-011
-2.450049999999969e+000	-2.450050e+000	2.203509e-011
-2.449899999999968e+000	-2.449900e+000	2.204366e-011
-2.449749999999968e+000	-2.449750e+000	2.205214e-011
-2.449599999999968e+000	-2.449600e+000	2.206071e-011
-2.449449999999968e+000	-2.449450e+000	2.206928e-011
-2.449299999999968e+000	-2.449300e+000	2.207794e-011
-2.449149999999968e+000	-2.449150e+000	2.208664e-011
-2.448999999999968e+000	-2.449000e+000	2.209535e-011
-2.448849999999968e+000	-2.448850e+000	2.210410e-011
-2.448699999999968e+000	-2.448700e+000	2.211289e-011
-2.448549999999968e+000	-2.448550e+000	2.212173e-011
-2.448399999999968e+000	-2.448400e+000	2.213056e-011
-2.448249999999967e+000	-2.448250e+000	2.213949e-011
-2.448099999999967e+000	-2.448100e+000	2.214842e-011
-2.447949999999967e+000	-2.447950e+000	2.215739e-011
-2.447799999999967e+000	-2.447800e+000	2.216640e-011
-2.447649999999967e+000	-2.447650e+000	2.217546e-011
-2.447499999999967e+000	-2.447500e+000	2.218456e-011
-2.447349999999967e+000	-2.447350e+000	2.219367e-011
-2.447199999999967e+000	-2.447200e+000	2.220282e-011
-2.447049999999967e+000	-2.447050e+000	2.221206e-011
-2.446899999999967e+000	-2.446900e+000	2.222129e-011
-2.446749999999967e+000	-2.446750e+000	2.223057e-011
-2.446599999999966e+000	-2.446600e+000	2.223990e-011
-2.446449999999966e+000	-2.446450e+000	2.224927e-011
-2.446299999999966e+000	-2.446300e+000	2.225859e-011
-2.446149999999966e+000	-2.446150e+000	2.226805e-011
-2.445999999999966e+000	-2.446000e+000	2.227751e-011
-2.445849999999966e+000	-2.445850e+000	2.228702e-011
-2.445699999999966e+000	-2.445700e+000	2.229665e-011
-2.445549999999966e+000	-2.445550e+000	2.230620e-011
-2.445399999999966e+000	-2.445400e+000	2.231584e-011
-2.445249999999966e+000	-2.445250e+000	2.232552e-011
-2.445099999999965e+000	-2.445100e+000	2.233524e-011
-2.444949999999965e+000	-2.444950e+000	2.234501e-011
-2.444799999999965e+000	-2.444800e+000	2.235478e-011
-2.444649999999965e+000	-2.444650e+000	2.236464e-011
-2.444499999999965e+000	-2.444500e+000	2.237455e-011
-2.444349999999965e+000	-2.444350e+000	2.238449e-011
-2.444199999999965e+000	-2.444200e+000	2.239449e-011
-2.444049999999965e+000	-2.444050e+000	2.240443e-011
-2.443899999999965e+000	-2.443900e+000	2.241447e-011
-2.443749999999965e+000	-2.443750e+000	2.242455e-011
-2.443599999999965e+000	-2.443600e+000	2.243468e-011
