vdd	V(ds)	Id(M1)
0.000000000000000e+000	0.000000e+000	-4.093973e-031
1.000000000000000e-001	1.000000e-001	1.653067e-004
2.000000000000000e-001	2.000000e-001	3.201403e-004
3.000000000000000e-001	3.000000e-001	4.642440e-004
4.000000000000000e-001	4.000000e-001	5.973530e-004
5.000000000000000e-001	5.000000e-001	7.192004e-004
6.000000000000000e-001	6.000000e-001	8.295170e-004
7.000000000000000e-001	7.000000e-001	9.280331e-004
7.999999999999999e-001	8.000000e-001	1.014479e-003
8.999999999999999e-001	9.000000e-001	1.088587e-003
9.999999999999999e-001	1.000000e+000	1.150091e-003
1.100000000000000e+000	1.100000e+000	1.198729e-003
1.200000000000000e+000	1.200000e+000	1.234243e-003
1.300000000000000e+000	1.300000e+000	1.256380e-003
1.400000000000000e+000	1.400000e+000	1.264893e-003
1.500000000000000e+000	1.500000e+000	1.265022e-003
1.600000000000000e+000	1.600000e+000	1.265060e-003
1.700000000000000e+000	1.700000e+000	1.265098e-003
1.800000000000001e+000	1.800000e+000	1.265135e-003
1.900000000000001e+000	1.900000e+000	1.265172e-003
2.000000000000000e+000	2.000000e+000	1.265209e-003
2.100000000000001e+000	2.100000e+000	1.265247e-003
2.200000000000001e+000	2.200000e+000	1.265284e-003
2.300000000000001e+000	2.300000e+000	1.265321e-003
2.400000000000001e+000	2.400000e+000	1.265359e-003
2.500000000000001e+000	2.500000e+000	1.265396e-003
2.600000000000001e+000	2.600000e+000	1.265433e-003
2.700000000000001e+000	2.700000e+000	1.265470e-003
2.800000000000001e+000	2.800000e+000	1.265508e-003
2.900000000000001e+000	2.900000e+000	1.265545e-003
3.000000000000001e+000	3.000000e+000	1.265582e-003
3.100000000000001e+000	3.100000e+000	1.265619e-003
3.200000000000002e+000	3.200000e+000	1.265657e-003
3.300000000000002e+000	3.300000e+000	1.265694e-003
3.400000000000002e+000	3.400000e+000	1.265731e-003
3.500000000000002e+000	3.500000e+000	1.265768e-003
3.600000000000002e+000	3.600000e+000	1.265806e-003
3.700000000000002e+000	3.700000e+000	1.265843e-003
3.800000000000002e+000	3.800000e+000	1.265880e-003
3.900000000000002e+000	3.900000e+000	1.265917e-003
4.000000000000002e+000	4.000000e+000	1.265955e-003
4.100000000000001e+000	4.100000e+000	1.265992e-003
4.200000000000001e+000	4.200000e+000	1.266029e-003
4.300000000000001e+000	4.300000e+000	1.266067e-003
4.400000000000000e+000	4.400000e+000	1.266104e-003
4.500000000000000e+000	4.500000e+000	1.266141e-003
4.600000000000000e+000	4.600000e+000	1.266178e-003
4.699999999999999e+000	4.700000e+000	1.266216e-003
4.799999999999999e+000	4.800000e+000	1.266253e-003
4.899999999999999e+000	4.900000e+000	1.266290e-003
4.999999999999998e+000	5.000000e+000	1.266327e-003
5.099999999999998e+000	5.100000e+000	1.266365e-003
5.199999999999998e+000	5.200000e+000	1.266402e-003
5.299999999999997e+000	5.300000e+000	1.266439e-003
5.399999999999997e+000	5.400000e+000	1.266477e-003
5.499999999999996e+000	5.500000e+000	1.266514e-003
5.599999999999996e+000	5.600000e+000	1.266551e-003
5.699999999999996e+000	5.700000e+000	1.266588e-003
5.799999999999995e+000	5.800000e+000	1.266626e-003
5.899999999999995e+000	5.900000e+000	1.266663e-003
5.999999999999995e+000	6.000000e+000	1.266700e-003
6.099999999999994e+000	6.100000e+000	1.266737e-003
6.199999999999994e+000	6.200000e+000	1.266775e-003
6.299999999999994e+000	6.300000e+000	1.266812e-003
6.399999999999993e+000	6.400000e+000	1.266849e-003
6.499999999999993e+000	6.500000e+000	1.266887e-003
6.599999999999993e+000	6.600000e+000	1.266924e-003
6.699999999999992e+000	6.700000e+000	1.266961e-003
6.799999999999992e+000	6.800000e+000	1.266998e-003
6.899999999999992e+000	6.900000e+000	1.267036e-003
6.999999999999991e+000	7.000000e+000	1.267073e-003
7.099999999999991e+000	7.100000e+000	1.267110e-003
7.199999999999990e+000	7.200000e+000	1.267148e-003
7.299999999999990e+000	7.300000e+000	1.267185e-003
7.399999999999990e+000	7.400000e+000	1.267222e-003
7.499999999999989e+000	7.500000e+000	1.267259e-003
7.599999999999989e+000	7.600000e+000	1.267297e-003
7.699999999999989e+000	7.700000e+000	1.267334e-003
7.799999999999988e+000	7.800000e+000	1.267371e-003
7.899999999999988e+000	7.900000e+000	1.267409e-003
7.999999999999988e+000	8.000000e+000	1.267446e-003
8.099999999999987e+000	8.100000e+000	1.267483e-003
8.199999999999987e+000	8.200000e+000	1.267520e-003
8.299999999999987e+000	8.300000e+000	1.267558e-003
8.399999999999986e+000	8.400000e+000	1.267595e-003
8.499999999999986e+000	8.500000e+000	1.267632e-003
8.599999999999985e+000	8.600000e+000	1.267670e-003
8.699999999999985e+000	8.700000e+000	1.267707e-003
8.799999999999985e+000	8.800000e+000	1.267744e-003
8.899999999999984e+000	8.900000e+000	1.267781e-003
8.999999999999984e+000	9.000000e+000	1.267819e-003
9.099999999999984e+000	9.100000e+000	1.267856e-003
9.199999999999983e+000	9.200000e+000	1.267893e-003
9.299999999999983e+000	9.300000e+000	1.267931e-003
9.399999999999983e+000	9.400000e+000	1.267968e-003
9.499999999999982e+000	9.500000e+000	1.268005e-003
9.599999999999982e+000	9.600000e+000	1.268042e-003
9.699999999999982e+000	9.700000e+000	1.268080e-003
9.799999999999981e+000	9.800000e+000	1.268117e-003
9.899999999999981e+000	9.900000e+000	1.268154e-003
9.999999999999981e+000	1.000000e+001	1.268192e-003
1.009999999999998e+001	1.010000e+001	1.268229e-003
1.019999999999998e+001	1.020000e+001	1.268266e-003
1.029999999999998e+001	1.030000e+001	1.268304e-003
1.039999999999998e+001	1.040000e+001	1.268341e-003
1.049999999999998e+001	1.050000e+001	1.268378e-003
1.059999999999998e+001	1.060000e+001	1.268415e-003
1.069999999999998e+001	1.070000e+001	1.268453e-003
1.079999999999998e+001	1.080000e+001	1.268490e-003
1.089999999999998e+001	1.090000e+001	1.268527e-003
1.099999999999998e+001	1.100000e+001	1.268565e-003
1.109999999999998e+001	1.110000e+001	1.268602e-003
1.119999999999998e+001	1.120000e+001	1.268639e-003
1.129999999999998e+001	1.130000e+001	1.268677e-003
1.139999999999998e+001	1.140000e+001	1.268714e-003
1.149999999999998e+001	1.150000e+001	1.268751e-003
1.159999999999998e+001	1.160000e+001	1.268788e-003
1.169999999999997e+001	1.170000e+001	1.268826e-003
1.179999999999997e+001	1.180000e+001	1.268863e-003
1.189999999999997e+001	1.190000e+001	1.268900e-003
1.199999999999997e+001	1.200000e+001	1.268938e-003
1.209999999999997e+001	1.210000e+001	1.268975e-003
1.219999999999997e+001	1.220000e+001	1.269012e-003
1.229999999999997e+001	1.230000e+001	1.269050e-003
1.239999999999997e+001	1.240000e+001	1.269087e-003
1.249999999999997e+001	1.250000e+001	1.269124e-003
1.259999999999997e+001	1.260000e+001	1.269162e-003
1.269999999999997e+001	1.270000e+001	1.269199e-003
1.279999999999997e+001	1.280000e+001	1.269236e-003
1.289999999999997e+001	1.290000e+001	1.269273e-003
1.299999999999997e+001	1.300000e+001	1.269311e-003
1.309999999999997e+001	1.310000e+001	1.269348e-003
1.319999999999997e+001	1.320000e+001	1.269385e-003
1.329999999999997e+001	1.330000e+001	1.269423e-003
1.339999999999997e+001	1.340000e+001	1.269460e-003
1.349999999999997e+001	1.350000e+001	1.269497e-003
1.359999999999997e+001	1.360000e+001	1.269535e-003
1.369999999999997e+001	1.370000e+001	1.269572e-003
1.379999999999997e+001	1.380000e+001	1.269609e-003
1.389999999999997e+001	1.390000e+001	1.269647e-003
1.399999999999997e+001	1.400000e+001	1.269684e-003
1.409999999999997e+001	1.410000e+001	1.269721e-003
1.419999999999997e+001	1.420000e+001	1.269758e-003
1.429999999999997e+001	1.430000e+001	1.269796e-003
1.439999999999997e+001	1.440000e+001	1.269833e-003
1.449999999999996e+001	1.450000e+001	1.269870e-003
1.459999999999996e+001	1.460000e+001	1.269908e-003
1.469999999999996e+001	1.470000e+001	1.269945e-003
1.479999999999996e+001	1.480000e+001	1.269982e-003
1.489999999999996e+001	1.490000e+001	1.270020e-003
1.499999999999996e+001	1.500000e+001	1.270057e-003
1.509999999999996e+001	1.510000e+001	1.270094e-003
1.519999999999996e+001	1.520000e+001	1.270132e-003
1.529999999999996e+001	1.530000e+001	1.270169e-003
1.539999999999996e+001	1.540000e+001	1.270206e-003
1.549999999999996e+001	1.550000e+001	1.270244e-003
1.559999999999996e+001	1.560000e+001	1.270281e-003
1.569999999999996e+001	1.570000e+001	1.270318e-003
1.579999999999996e+001	1.580000e+001	1.270356e-003
1.589999999999996e+001	1.590000e+001	1.270393e-003
1.599999999999996e+001	1.600000e+001	1.270430e-003
1.609999999999996e+001	1.610000e+001	1.270468e-003
1.619999999999996e+001	1.620000e+001	1.270505e-003
1.629999999999996e+001	1.630000e+001	1.270542e-003
1.639999999999996e+001	1.640000e+001	1.270579e-003
1.649999999999996e+001	1.650000e+001	1.270617e-003
1.659999999999997e+001	1.660000e+001	1.270654e-003
1.669999999999997e+001	1.670000e+001	1.270691e-003
1.679999999999997e+001	1.680000e+001	1.270729e-003
1.689999999999997e+001	1.690000e+001	1.270766e-003
1.699999999999997e+001	1.700000e+001	1.270803e-003
1.709999999999997e+001	1.710000e+001	1.270841e-003
1.719999999999997e+001	1.720000e+001	1.270878e-003
1.729999999999998e+001	1.730000e+001	1.270915e-003
1.739999999999998e+001	1.740000e+001	1.270953e-003
1.749999999999998e+001	1.750000e+001	1.270990e-003
1.759999999999998e+001	1.760000e+001	1.271027e-003
1.769999999999998e+001	1.770000e+001	1.271065e-003
1.779999999999998e+001	1.780000e+001	1.271102e-003
1.789999999999998e+001	1.790000e+001	1.271139e-003
1.799999999999999e+001	1.800000e+001	1.271177e-003
1.809999999999999e+001	1.810000e+001	1.271214e-003
1.819999999999999e+001	1.820000e+001	1.271251e-003
1.829999999999999e+001	1.830000e+001	1.271289e-003
1.839999999999999e+001	1.840000e+001	1.271326e-003
1.849999999999999e+001	1.850000e+001	1.271363e-003
1.859999999999999e+001	1.860000e+001	1.271401e-003
1.870000000000000e+001	1.870000e+001	1.271438e-003
1.880000000000000e+001	1.880000e+001	1.271475e-003
1.890000000000000e+001	1.890000e+001	1.271513e-003
1.900000000000000e+001	1.900000e+001	1.271550e-003
1.910000000000000e+001	1.910000e+001	1.271587e-003
1.920000000000000e+001	1.920000e+001	1.271625e-003
1.930000000000000e+001	1.930000e+001	1.271662e-003
1.940000000000001e+001	1.940000e+001	1.271699e-003
1.950000000000001e+001	1.950000e+001	1.271737e-003
1.960000000000001e+001	1.960000e+001	1.271774e-003
1.970000000000001e+001	1.970000e+001	1.271811e-003
1.980000000000001e+001	1.980000e+001	1.271849e-003
1.990000000000001e+001	1.990000e+001	1.271886e-003
2.000000000000000e+001	2.000000e+001	1.271923e-003
